date Mon Jul 6 10:18:00.554 am 2026
base hex  timestamps absolute
internal events logged
// version 14.4.0
// Measurement UUID: 806d414c-e472-4a53-be5b-f13e550ec527
0.000000 1  CF090C9x    Rx  d 8  00 00 00 00 48 03 00 7D
0.000002 1  CF091C9x    Rx  d 8  40 09 B8 0B B8 0B FF FF
0.000003 1  CF092C9x    Rx  d 8  83 25 83 25 FF FF FF FF
0.000003 1  CF094C9x    Rx  d 8  FF FF FF FF 40 09 40 09
0.000695 1  C1BC905x    Tx  d 8  00 00 00 00 00 00 00 00
0.000954 1  CFF11C9x    Rx  d 8  00 00 00 00 00 00 00 00
0.000954 1  CFF12C9x    Rx  d 8  FF FF FF FF FF FF FF FF
0.000954 1  CFF13C9x    Rx  d 8  00 7D FF FF FF FF FF FF
0.020832 1  C1BC905x    Tx  d 8  00 00 00 00 00 00 00 00
0.026211 1  CF090C9x    Rx  d 8  00 00 00 00 48 03 00 7D
0.026212 1  CF091C9x    Rx  d 8  40 09 B8 0B B8 0B FF FF
0.026213 1  CF092C9x    Rx  d 8  83 25 83 25 FF FF FF FF
0.026214 1  CF094C9x    Rx  d 8  FF FF FF FF 40 09 40 09
0.027117 1  CFF11C9x    Rx  d 8  00 00 00 00 00 00 00 00
0.027118 1  CFF12C9x    Rx  d 8  FF FF FF FF FF FF FF FF
0.027119 1  CFF13C9x    Rx  d 8  00 7D FF FF FF FF FF FF
0.040859 1  C1BC905x    Tx  d 8  00 00 00 00 00 00 00 00
0.049839 1  CF090C9x    Rx  d 8  00 00 00 00 48 03 00 7D
0.049842 1  CF091C9x    Rx  d 8  40 09 B8 0B B8 0B FF FF
0.049843 1  CF092C9x    Rx  d 8  83 25 83 25 FF FF FF FF
0.049845 1  CF094C9x    Rx  d 8  FF FF FF FF 40 09 40 09
0.050787 1  CFF11C9x    Rx  d 8  00 00 00 00 00 00 00 00
0.050789 1  CFF12C9x    Rx  d 8  FF FF FF FF FF FF FF FF
0.050790 1  CFF13C9x    Rx  d 8  00 7D FF FF FF FF FF FF
0.061160 1  C1BC905x    Tx  d 8  00 00 00 00 00 00 00 00
0.070967 1  CF090C9x    Rx  d 8  00 00 00 00 48 03 00 7D
0.070969 1  CF091C9x    Rx  d 8  40 09 B8 0B B8 0B FF FF
0.070970 1  CF092C9x    Rx  d 8  83 25 83 25 FF FF FF FF
0.070971 1  CF094C9x    Rx  d 8  FF FF FF FF 40 09 40 09
0.072086 1  CFF11C9x    Rx  d 8  00 00 00 00 00 00 00 00
0.072088 1  CFF12C9x    Rx  d 8  FF FF FF FF FF FF FF FF
0.072089 1  CFF13C9x    Rx  d 8  00 7D FF FF FF FF FF FF
0.075649 1  CF10CC9x    Rx  d 8  01 FF 01 FF FF FF FF FA
0.075651 1  CF093C9x    Rx  d 8  00 FF 00 FF FF FF FF FF
0.075652 1  CF095C9x    Rx  d 8  65 01 FF FF FF FF FF FF
0.075653 1  CF096C9x    Rx  d 8  0F FF FF FF FF 20 FF FF
0.076630 1  CF10AC9x    Rx  d 8  01 FF 01 FF FF FF FF FF
0.076632 1  CF10BC9x    Rx  d 8  01 FF 01 FF FF FF FF FF
0.076633 1  CFA24C9x    Rx  d 8  FF FF FF 00 FF FF FF FF
0.078070 1  C1BC905x    Tx  d 8  01 00 00 00 00 00 00 00
0.079748 1  CFF0105x    Tx  d 8  00 00 00 00 00 00 00 00
0.079964 1  CFF0105x    Tx  d 8  00 00 00 00 00 00 00 00
0.094567 1  CF090C9x    Rx  d 8  00 00 00 00 48 03 00 7D
0.094569 1  CF091C9x    Rx  d 8  40 09 B8 0B B8 0B FF FF
0.094570 1  CF092C9x    Rx  d 8  83 25 83 25 FF FF FF FF
0.094571 1  CF094C9x    Rx  d 8  FF FF FF FF 40 09 40 09
0.095665 1  CFF11C9x    Rx  d 8  00 00 00 00 00 00 00 00
0.095667 1  CFF12C9x    Rx  d 8  FF FF FF FF FF FF FF FF
0.095667 1  CFF13C9x    Rx  d 8  00 7D FF FF FF FF FF FF
0.098113 1  C1BC905x    Tx  d 8  01 00 00 00 00 00 00 00
0.100031 1  CFF0105x    Tx  d 8  00 00 00 00 00 00 00 00
0.114580 1  CF090C9x    Rx  d 8  00 00 00 00 48 03 00 7D
0.114582 1  CF091C9x    Rx  d 8  40 09 B8 0B B8 0B FF FF
0.114584 1  CF092C9x    Rx  d 8  83 25 83 25 FF FF FF FF
0.114585 1  CF094C9x    Rx  d 8  FF FF FF FF 40 09 40 09
0.115676 1  CFF11C9x    Rx  d 8  00 00 00 00 00 00 00 00
0.115678 1  CFF12C9x    Rx  d 8  FF FF FF FF FF FF FF FF
0.115679 1  CFF13C9x    Rx  d 8  00 7D FF FF FF FF FF FF
0.118194 1  C1BC905x    Tx  d 8  01 00 00 00 00 00 00 00
0.120093 1  CFF0105x    Tx  d 8  00 00 00 00 00 00 00 00
0.134836 1  CF090C9x    Rx  d 8  00 00 00 00 48 03 00 7D
0.134838 1  CF091C9x    Rx  d 8  40 09 B8 0B B8 0B FF FF
0.134839 1  CF092C9x    Rx  d 8  83 25 83 25 FF FF FF FF
0.134841 1  CF094C9x    Rx  d 8  FF FF FF FF 40 09 40 09
0.135950 1  CFF11C9x    Rx  d 8  00 00 00 00 00 00 00 00
0.135952 1  CFF12C9x    Rx  d 8  FF FF FF FF FF FF FF FF
0.135953 1  CFF13C9x    Rx  d 8  00 7D FF FF FF FF FF FF
0.138281 1  C1BC905x    Tx  d 8  01 00 00 00 00 00 00 00
0.140183 1  CFF0105x    Tx  d 8  00 00 00 00 00 00 00 00
0.155087 1  CF090C9x    Rx  d 8  00 00 00 00 48 03 00 7D
0.155090 1  CF091C9x    Rx  d 8  40 09 B8 0B B8 0B FF FF
0.155091 1  CF092C9x    Rx  d 8  83 25 83 25 FF FF FF FF
0.155092 1  CF094C9x    Rx  d 8  FF FF FF FF 40 09 40 09
0.156148 1  CFF11C9x    Rx  d 8  00 00 00 00 00 00 00 00
0.156150 1  CFF12C9x    Rx  d 8  FF FF FF FF FF FF FF FF
0.156151 1  CFF13C9x    Rx  d 8  00 7D FF FF FF FF FF FF
0.158381 1  C1BC905x    Tx  d 8  01 00 00 00 00 00 00 00
0.160451 1  CFF0105x    Tx  d 8  00 00 00 00 00 00 00 00
0.178679 1  C1BC905x    Tx  d 8  01 00 00 00 00 00 00 00
0.179353 1  CF090C9x    Rx  d 8  00 00 00 00 48 03 00 7D
0.179355 1  CF091C9x    Rx  d 8  40 09 B8 0B B8 0B FF FF
0.179356 1  CF092C9x    Rx  d 8  83 25 83 25 FF FF FF FF
0.180466 1  CFF0105x    Tx  d 8  00 00 00 00 00 00 00 00
0.180528 1  CF093C9x    Rx  d 8  00 FF 00 FF FF FF FF FF
0.180530 1  CF094C9x    Rx  d 8  FF FF FF FF 40 09 40 09
0.180531 1  CF095C9x    Rx  d 8  65 01 FF FF FF FF FF FF
0.180532 1  CF096C9x    Rx  d 8  0F FF FF FF FF 22 FF FF
0.181670 1  CF10AC9x    Rx  d 8  01 FF 01 FF FF FF FF FF
0.181672 1  CF10BC9x    Rx  d 8  01 FF 01 FF FF FF FF FF
0.181673 1  CF10CC9x    Rx  d 8  01 FF 01 FF FF FF 00 FF
0.181674 1  CFA24C9x    Rx  d 8  FF FF FF 00 FF FF FF FF
0.183068 1  CFF11C9x    Rx  d 8  00 00 00 00 00 00 00 00
0.183069 1  CFF12C9x    Rx  d 8  FF FF FF FF FF FF FF FF
0.183070 1  CFF13C9x    Rx  d 8  00 7D FF FF FF FF FF FF
0.198717 1  C1BC905x    Tx  d 8  01 00 00 00 00 00 00 00
0.200742 1  CFF0105x    Tx  d 8  00 00 00 00 00 00 00 00
0.204856 1  CF090C9x    Rx  d 8  00 00 00 00 48 03 00 7D
0.204859 1  CF091C9x    Rx  d 8  40 09 B8 0B B8 0B FF FF
0.204859 1  CF092C9x    Rx  d 8  83 25 83 25 FF FF FF FF
0.204860 1  CF094C9x    Rx  d 8  FF FF FF FF 40 09 40 09
0.205778 1  CFF11C9x    Rx  d 8  00 00 00 00 00 00 00 00
0.205779 1  CFF12C9x    Rx  d 8  FF FF FF FF FF FF FF FF
0.205780 1  CFF13C9x    Rx  d 8  00 7D FF FF FF FF FF FF
0.218731 1  C1BC905x    Tx  d 8  01 00 00 00 00 00 00 00
0.221010 1  CFF0105x    Tx  d 8  00 00 00 00 00 00 00 00
0.226348 1  CF090C9x    Rx  d 8  00 00 00 00 48 03 00 7D
0.226353 1  CF091C9x    Rx  d 8  40 09 B8 0B B8 0B FF FF
0.226354 1  CF092C9x    Rx  d 8  83 25 83 25 FF FF FF FF
0.226356 1  CF094C9x    Rx  d 8  FF FF FF FF 40 09 40 09
0.227289 1  CFF11C9x    Rx  d 8  00 00 00 00 00 00 00 00
0.227290 1  CFF12C9x    Rx  d 8  FF FF FF FF FF FF FF FF
0.227291 1  CFF13C9x    Rx  d 8  00 7D FF FF FF FF FF FF
0.238848 1  C1BC905x    Tx  d 8  01 00 00 00 00 00 00 00
0.241268 1  CFF0105x    Tx  d 8  00 00 00 00 00 00 00 00
0.250152 1  CF090C9x    Rx  d 8  00 00 00 00 48 03 00 7D
0.250154 1  CF091C9x    Rx  d 8  40 09 B8 0B B8 0B FF FF
0.250154 1  CF092C9x    Rx  d 8  83 25 83 25 FF FF FF FF
0.250155 1  CF094C9x    Rx  d 8  FF FF FF FF 40 09 40 09
0.251101 1  CFF11C9x    Rx  d 8  00 00 00 00 00 00 00 00
0.251102 1  CFF12C9x    Rx  d 8  FF FF FF FF FF FF FF FF
0.251104 1  CFF13C9x    Rx  d 8  00 7D FF FF FF FF FF FF
0.259089 1  C1BC905x    Tx  d 8  01 00 00 00 00 00 00 00
0.261526 1  CFF0105x    Tx  d 8  00 00 00 00 00 00 00 00
0.270509 1  CF090C9x    Rx  d 8  00 00 00 00 48 03 00 7D
0.270512 1  CF091C9x    Rx  d 8  40 09 B8 0B B8 0B FF FF
0.270516 1  CF092C9x    Rx  d 8  83 25 83 25 FF FF FF FF
0.270517 1  CF094C9x    Rx  d 8  FF FF FF FF 40 09 40 09
0.271629 1  CFF11C9x    Rx  d 8  00 00 00 00 00 00 00 00
0.271631 1  CFF12C9x    Rx  d 8  FF FF FF FF FF FF FF FF
0.271632 1  CFF13C9x    Rx  d 8  00 7D FF FF FF FF FF FF
0.279395 1  C1BC905x    Tx  d 8  01 00 00 00 00 00 00 00
0.280008 1  CF10CC9x    Rx  d 8  01 FF 01 FF FF FF 00 FF
0.280010 1  CF093C9x    Rx  d 8  00 FF 00 FF FF FF FF FF
0.280011 1  CF095C9x    Rx  d 8  65 01 FF FF FF FF FF FF
0.281337 1  CF096C9x    Rx  d 8  0F FF FF FF FF 22 FF FF
0.281339 1  CF10AC9x    Rx  d 8  01 FF 01 FF FF FF FF FF
0.281340 1  CF10BC9x    Rx  d 8  01 FF 01 FF FF FF FF FF
0.281342 1  CFA24C9x    Rx  d 8  FF FF FF 00 FF FF FF FF
0.281582 1  CFF0105x    Tx  d 8  00 00 00 00 00 00 00 00
0.291086 1  CF090C9x    Rx  d 8  00 00 00 00 48 03 00 7D
0.291088 1  CF091C9x    Rx  d 8  40 09 B8 0B B8 0B FF FF
0.291089 1  CF092C9x    Rx  d 8  83 25 83 25 FF FF FF FF
0.291090 1  CF094C9x    Rx  d 8  FF FF FF FF 40 09 40 09
0.292041 1  CFF11C9x    Rx  d 8  00 00 00 00 00 00 00 00
0.292043 1  CFF12C9x    Rx  d 8  FF FF FF FF FF FF FF FF
0.292044 1  CFF13C9x    Rx  d 8  00 7D FF FF FF FF FF FF
0.299431 1  C1BC905x    Tx  d 8  01 00 00 00 00 00 00 00
0.301606 1  CFF0105x    Tx  d 8  00 00 00 00 00 00 00 00
0.314659 1  CF090C9x    Rx  d 8  00 00 00 00 48 03 00 7D
0.314661 1  CF091C9x    Rx  d 8  40 09 B8 0B B8 0B FF FF
0.314662 1  CF092C9x    Rx  d 8  83 25 83 25 FF FF FF FF
0.314664 1  CF094C9x    Rx  d 8  FF FF FF FF 40 09 40 09
0.315755 1  CFF11C9x    Rx  d 8  00 00 00 00 00 00 00 00
0.315758 1  CFF12C9x    Rx  d 8  FF FF FF FF FF FF FF FF
0.315759 1  CFF13C9x    Rx  d 8  00 7D FF FF FF FF FF FF
0.319618 1  C1BC905x    Tx  d 8  01 00 00 00 00 00 00 00
0.321897 1  CFF0105x    Tx  d 8  00 00 00 00 00 00 00 00
0.334955 1  CF090C9x    Rx  d 8  00 00 00 00 48 03 00 7D
0.334956 1  CF091C9x    Rx  d 8  40 09 B8 0B B8 0B FF FF
0.334957 1  CF092C9x    Rx  d 8  83 25 83 25 FF FF FF FF
0.334960 1  CF094C9x    Rx  d 8  FF FF FF FF 40 09 40 09
0.335854 1  CFF11C9x    Rx  d 8  00 00 00 00 00 00 00 00
0.335858 1  CFF12C9x    Rx  d 8  FF FF FF FF FF FF FF FF
0.335860 1  CFF13C9x    Rx  d 8  00 7D FF FF FF FF FF FF
0.339929 1  C1BC905x    Tx  d 8  01 00 00 00 00 00 00 00
0.342158 1  CFF0105x    Tx  d 8  00 00 00 00 00 00 00 00
0.355183 1  CF090C9x    Rx  d 8  00 00 00 00 48 03 00 7D
0.355186 1  CF091C9x    Rx  d 8  40 09 B8 0B B8 0B FF FF
0.355188 1  CF092C9x    Rx  d 8  83 25 83 25 FF FF FF FF
0.355201 1  CF094C9x    Rx  d 8  FF FF FF FF 40 09 40 09
0.356165 1  CFF11C9x    Rx  d 8  00 00 00 00 00 00 00 00
0.356167 1  CFF12C9x    Rx  d 8  FF FF FF FF FF FF FF FF
0.356168 1  CFF13C9x    Rx  d 8  00 7D FF FF FF FF FF FF
0.360195 1  C1BC905x    Tx  d 8  01 00 00 00 00 00 00 00
0.362470 1  CFF0105x    Tx  d 8  00 00 00 00 00 00 00 00
0.375321 1  CF090C9x    Rx  d 8  00 00 00 00 48 03 00 7D
0.375323 1  CF091C9x    Rx  d 8  40 09 B8 0B B8 0B FF FF
0.375324 1  CF092C9x    Rx  d 8  83 25 83 25 FF FF FF FF
0.375324 1  CF094C9x    Rx  d 8  FF FF FF FF 40 09 40 09
0.376253 1  CFF11C9x    Rx  d 8  00 00 00 00 00 00 00 00
0.376255 1  CFF12C9x    Rx  d 8  FF FF FF FF FF FF FF FF
0.376256 1  CFF13C9x    Rx  d 8  00 7D FF FF FF FF FF FF
0.380450 1  C1BC905x    Tx  d 8  01 00 00 00 00 00 00 00
0.382565 1  CFF0105x    Tx  d 8  00 00 00 00 00 00 00 00
0.385526 1  CF10CC9x    Rx  d 8  01 FF 01 FF FF FF 00 FF
0.385528 1  CF093C9x    Rx  d 8  00 FF 00 FF FF FF FF FF
0.385529 1  CF095C9x    Rx  d 8  65 01 FF FF FF FF FF FF
0.385530 1  CF096C9x    Rx  d 8  0F FF FF FF FF 22 FF FF
0.386454 1  CF10AC9x    Rx  d 8  01 FF 01 FF FF FF FF FF
0.386456 1  CF10BC9x    Rx  d 8  01 FF 01 FF FF FF FF FF
0.386457 1  CFA24C9x    Rx  d 8  FF FF FF 00 FF FF FF FF
0.399835 1  CF090C9x    Rx  d 8  00 00 00 00 48 03 00 7D
0.399840 1  CF091C9x    Rx  d 8  40 09 B8 0B B8 0B FF FF
0.399842 1  CF092C9x    Rx  d 8  83 25 83 25 FF FF FF FF
0.399845 1  CF094C9x    Rx  d 8  FF FF FF FF 40 09 40 09
0.400504 1  C1BC905x    Tx  d 8  01 00 00 00 00 00 00 00
0.400792 1  CFF11C9x    Rx  d 8  00 00 00 00 00 00 00 00
0.400793 1  CFF12C9x    Rx  d 8  FF FF FF FF FF FF FF FF
0.400794 1  CFF13C9x    Rx  d 8  00 7D FF FF FF FF FF FF
0.402687 1  CFF0105x    Tx  d 8  00 00 00 00 00 00 00 00
0.420699 1  C1BC905x    Tx  d 8  01 00 00 00 00 00 00 00
0.422758 1  CFF0105x    Tx  d 8  00 00 00 00 00 00 00 00
0.426607 1  CF090C9x    Rx  d 8  00 00 00 00 48 03 00 7D
0.426609 1  CF091C9x    Rx  d 8  40 09 B8 0B B8 0B FF FF
0.426610 1  CF092C9x    Rx  d 8  83 25 83 25 FF FF FF FF
0.426611 1  CF094C9x    Rx  d 8  FF FF FF FF 40 09 40 09
0.427554 1  CFF11C9x    Rx  d 8  00 00 00 00 00 00 00 00
0.427556 1  CFF12C9x    Rx  d 8  FF FF FF FF FF FF FF FF
0.427557 1  CFF13C9x    Rx  d 8  00 7D FF FF FF FF FF FF
0.440973 1  C1BC905x    Tx  d 8  01 00 00 00 00 00 00 00
0.442847 1  CFF0105x    Tx  d 8  00 00 00 00 00 00 00 00
0.450481 1  CF090C9x    Rx  d 8  00 00 00 00 48 03 00 7D
0.450483 1  CF091C9x    Rx  d 8  40 09 B8 0B B8 0B FF FF
0.450484 1  CF092C9x    Rx  d 8  83 25 83 25 FF FF FF FF
0.450487 1  CF094C9x    Rx  d 8  FF FF FF FF 40 09 40 09
0.451583 1  CFF11C9x    Rx  d 8  00 00 00 00 00 00 00 00
0.451585 1  CFF12C9x    Rx  d 8  FF FF FF FF FF FF FF FF
0.451586 1  CFF13C9x    Rx  d 8  00 7D FF FF FF FF FF FF
0.461042 1  C1BC905x    Tx  d 8  01 00 00 00 00 00 00 00
0.463124 1  CFF0105x    Tx  d 8  00 00 00 00 00 00 00 00
0.470612 1  CF090C9x    Rx  d 8  00 00 00 00 48 03 00 7D
0.470614 1  CF091C9x    Rx  d 8  40 09 B8 0B B8 0B FF FF
0.470617 1  CF092C9x    Rx  d 8  83 25 83 25 FF FF FF FF
0.470621 1  CF094C9x    Rx  d 8  FF FF FF FF 40 09 40 09
0.471707 1  CFF11C9x    Rx  d 8  00 00 00 00 00 00 00 00
0.471708 1  CFF12C9x    Rx  d 8  FF FF FF FF FF FF FF FF
0.471709 1  CFF13C9x    Rx  d 8  00 7D FF FF FF FF FF FF
0.481315 1  C1BC905x    Tx  d 8  01 00 00 00 00 00 00 00
0.483342 1  CFF0105x    Tx  d 8  00 00 00 00 00 00 00 00
0.485977 1  CF10CC9x    Rx  d 8  01 FF 01 FF FF FF 00 FF
0.485979 1  CF093C9x    Rx  d 8  00 00 00 00 FF FF FF FF
0.485980 1  CF095C9x    Rx  d 8  67 01 FF FF FF FF FF FF
0.485981 1  CF096C9x    Rx  d 8  0F FF FF FF FF 22 FF FF
0.486959 1  CF10AC9x    Rx  d 8  01 FF 01 FF FF FF FF FF
0.486961 1  CF10BC9x    Rx  d 8  01 FF 01 FF FF FF FF FF
0.486962 1  CFA24C9x    Rx  d 8  FF FF FF 00 FF FF FF FF
0.495102 1  CF090C9x    Rx  d 8  00 00 00 00 48 03 00 7D
0.495104 1  CF091C9x    Rx  d 8  40 09 B8 0B B8 0B FF FF
0.495105 1  CF092C9x    Rx  d 8  83 25 83 25 FF FF FF FF
0.495106 1  CF094C9x    Rx  d 8  FF FF FF FF 40 09 40 09
0.496053 1  CFF11C9x    Rx  d 8  00 00 00 00 00 00 00 00
0.496056 1  CFF12C9x    Rx  d 8  FF FF FF FF FF FF FF FF
0.496057 1  CFF13C9x    Rx  d 8  00 7D FF FF FF FF FF FF
0.501573 1  C1BC905x    Tx  d 8  01 00 00 00 00 00 00 00
0.503597 1  CFF0105x    Tx  d 8  00 00 00 00 00 00 00 00
0.519728 1  CF090C9x    Rx  d 8  00 00 00 00 48 03 00 7D
0.519732 1  CF091C9x    Rx  d 8  40 09 B8 0B B8 0B FF FF
0.519737 1  CF092C9x    Rx  d 8  83 25 83 25 FF FF FF FF
0.519738 1  CF094C9x    Rx  d 8  FF FF FF FF 40 09 40 09
0.520680 1  CFF11C9x    Rx  d 8  00 00 00 00 00 00 00 00
0.520681 1  CFF12C9x    Rx  d 8  FF FF FF FF FF FF FF FF
0.520682 1  CFF13C9x    Rx  d 8  00 7D FF FF FF FF FF FF
0.521673 1  C1BC905x    Tx  d 8  01 00 00 00 00 00 00 00
0.523898 1  CFF0105x    Tx  d 8  00 00 00 00 00 00 00 00
0.540179 1  CF090C9x    Rx  d 8  00 00 00 00 48 03 00 7D
0.540181 1  CF091C9x    Rx  d 8  40 09 B8 0B B8 0B FF FF
0.540182 1  CF092C9x    Rx  d 8  83 25 83 25 FF FF FF FF
0.540184 1  CF094C9x    Rx  d 8  FF FF FF FF 40 09 40 09
0.541130 1  CFF11C9x    Rx  d 8  00 00 00 00 00 00 00 00
0.541131 1  CFF12C9x    Rx  d 8  FF FF FF FF FF FF FF FF
0.541133 1  CFF13C9x    Rx  d 8  00 7D FF FF FF FF FF FF
0.541746 1  C1BC905x    Tx  d 8  01 00 00 00 00 00 00 00
0.544122 1  CFF0105x    Tx  d 8  00 00 00 00 00 00 00 00
0.562050 1  C1BC905x    Tx  d 8  01 00 00 00 00 00 00 00
0.564373 1  CFF0105x    Tx  d 8  00 00 00 00 00 00 00 00
0.565249 1  CF090C9x    Rx  d 8  00 00 00 00 48 03 00 7D
0.565250 1  CF091C9x    Rx  d 8  40 09 B8 0B B8 0B FF FF
0.565251 1  CF092C9x    Rx  d 8  83 25 83 25 FF FF FF FF
0.565252 1  CF094C9x    Rx  d 8  FF FF FF FF 40 09 40 09
0.566669 1  CFF11C9x    Rx  d 8  00 00 00 00 00 00 00 00
0.566670 1  CFF12C9x    Rx  d 8  FF FF FF FF FF FF FF FF
0.566671 1  CFF13C9x    Rx  d 8  00 7D FF FF FF FF FF FF
0.582279 1  C1BC905x    Tx  d 8  01 00 00 00 00 00 00 00
0.584670 1  CFF0105x    Tx  d 8  00 00 00 00 00 00 00 00
0.589858 1  CF090C9x    Rx  d 8  00 00 00 00 48 03 00 7D
0.589861 1  CF091C9x    Rx  d 8  40 09 B8 0B B8 0B FF FF
0.589862 1  CF092C9x    Rx  d 8  83 25 83 25 FF FF FF FF
0.589863 1  CF093C9x    Rx  d 8  00 00 00 00 FF FF FF FF
0.590926 1  CF094C9x    Rx  d 8  FF FF FF FF 40 09 40 09
0.590928 1  CF095C9x    Rx  d 8  65 01 FF FF FF FF FF FF
0.590928 1  CF096C9x    Rx  d 8  0F FF FF FF FF 22 FF FF
0.590929 1  CF10AC9x    Rx  d 8  01 FF 01 FF FF FF FF FF
0.592073 1  CF10BC9x    Rx  d 8  01 FF 01 FF FF FF FF FF
0.592075 1  CF10CC9x    Rx  d 8  01 FF 01 FF FF FF 00 FF
0.592075 1  CFA24C9x    Rx  d 8  FF FF FF 00 FF FF FF FF
0.592076 1  CFF11C9x    Rx  d 8  00 00 00 00 00 00 00 00
0.593075 1  CFF12C9x    Rx  d 8  FF FF FF FF FF FF FF FF
0.593077 1  CFF13C9x    Rx  d 8  00 7D FF FF FF FF FF FF
0.602566 1  C1BC905x    Tx  d 8  01 00 00 00 00 00 00 00
0.604920 1  CFF0105x    Tx  d 8  00 00 00 00 00 00 00 00
0.609849 1  CF090C9x    Rx  d 8  00 00 00 00 48 03 00 7D
0.609851 1  CF091C9x    Rx  d 8  40 09 B8 0B B8 0B FF FF
0.609853 1  CF092C9x    Rx  d 8  83 25 83 25 FF FF FF FF
0.609854 1  CF094C9x    Rx  d 8  FF FF FF FF 40 09 40 09
0.610809 1  CFF11C9x    Rx  d 8  00 00 00 00 00 00 00 00
0.610811 1  CFF12C9x    Rx  d 8  FF FF FF FF FF FF FF FF
0.610813 1  CFF13C9x    Rx  d 8  00 7D FF FF FF FF FF FF
0.622689 1  C1BC905x    Tx  d 8  01 00 00 00 00 00 00 00
0.625227 1  CFF0105x    Tx  d 8  00 00 00 00 00 00 00 00
0.630057 1  CF090C9x    Rx  d 8  00 00 00 00 48 03 00 7D
0.630059 1  CF091C9x    Rx  d 8  40 09 B8 0B B8 0B FF FF
0.630060 1  CF092C9x    Rx  d 8  83 25 83 25 FF FF FF FF
0.630061 1  CF094C9x    Rx  d 8  FF FF FF FF 40 09 40 09
0.631009 1  CFF11C9x    Rx  d 8  00 00 00 00 00 00 00 00
0.631011 1  CFF12C9x    Rx  d 8  FF FF FF FF FF FF FF FF
0.631012 1  CFF13C9x    Rx  d 8  00 7D FF FF FF FF FF FF
0.642767 1  C1BC905x    Tx  d 8  01 00 00 00 00 00 00 00
0.645480 1  CFF0105x    Tx  d 8  00 00 00 00 00 00 00 00
0.654484 1  CF090C9x    Rx  d 8  00 00 00 00 48 03 00 7D
0.654486 1  CF091C9x    Rx  d 8  40 09 B8 0B B8 0B FF FF
0.654487 1  CF092C9x    Rx  d 8  83 25 83 25 FF FF FF FF
0.654489 1  CF094C9x    Rx  d 8  FF FF FF FF 40 09 40 09
0.655558 1  CFF11C9x    Rx  d 8  00 00 00 00 00 00 00 00
0.655561 1  CFF12C9x    Rx  d 8  FF FF FF FF FF FF FF FF
0.655562 1  CFF13C9x    Rx  d 8  00 7D FF FF FF FF FF FF
0.662832 1  C1BC905x    Tx  d 8  01 00 00 00 00 00 00 00
0.665705 1  CFF0105x    Tx  d 8  00 00 00 00 00 00 00 00
0.675235 1  CF090C9x    Rx  d 8  00 00 00 00 48 03 00 7D
0.675237 1  CF091C9x    Rx  d 8  40 09 B8 0B B8 0B FF FF
0.675238 1  CF092C9x    Rx  d 8  83 25 83 25 FF FF FF FF
0.675239 1  CF094C9x    Rx  d 8  FF FF FF FF 40 09 40 09
0.676180 1  CFF11C9x    Rx  d 8  00 00 00 00 00 00 00 00
0.676182 1  CFF12C9x    Rx  d 8  FF FF FF FF FF FF FF FF
0.676185 1  CFF13C9x    Rx  d 8  00 7D FF FF FF FF FF FF
0.683128 1  C1BC905x    Tx  d 8  01 00 00 00 00 00 00 00
0.686005 1  CFF0105x    Tx  d 8  00 00 00 00 00 00 00 00
0.695237 1  CF090C9x    Rx  d 8  00 00 00 00 48 03 00 7D
0.695241 1  CF091C9x    Rx  d 8  40 09 B8 0B B8 0B FF FF
0.695242 1  CF092C9x    Rx  d 8  83 25 83 25 FF FF FF FF
0.695244 1  CF093C9x    Rx  d 8  00 FF 00 FF FF FF FF FF
0.696155 1  CF094C9x    Rx  d 8  FF FF FF FF 40 09 40 09
0.696157 1  CF095C9x    Rx  d 8  67 01 FF FF FF FF FF FF
0.696159 1  CF096C9x    Rx  d 8  0F FF FF FF FF 22 FF FF
0.696160 1  CF10AC9x    Rx  d 8  01 FF 01 FF FF FF FF FF
0.697334 1  CF10BC9x    Rx  d 8  01 FF 01 FF FF FF FF FF
0.697335 1  CF10CC9x    Rx  d 8  01 FF 01 FF FF FF 00 FF
0.697336 1  CFA24C9x    Rx  d 8  FF FF FF 00 FF FF FF FF
0.697337 1  CFF11C9x    Rx  d 8  00 00 00 00 00 00 00 00
0.698485 1  CFF12C9x    Rx  d 8  FF FF FF FF FF FF FF FF
0.698486 1  CFF13C9x    Rx  d 8  00 7D FF FF FF FF FF FF
0.703158 1  C1BC905x    Tx  d 8  01 00 00 00 00 00 00 00
0.706211 1  CFF0105x    Tx  d 8  00 00 00 00 00 00 00 00
0.719779 1  CF090C9x    Rx  d 8  00 00 00 00 48 03 00 7D
0.719784 1  CF091C9x    Rx  d 8  40 09 B8 0B B8 0B FF FF
0.719785 1  CF092C9x    Rx  d 8  83 25 83 25 FF FF FF FF
0.719786 1  CF094C9x    Rx  d 8  FF FF FF FF 40 09 40 09
0.720704 1  CFF11C9x    Rx  d 8  00 00 00 00 00 00 00 00
0.720706 1  CFF12C9x    Rx  d 8  FF FF FF FF FF FF FF FF
0.720707 1  CFF13C9x    Rx  d 8  00 7D FF FF FF FF FF FF
0.723397 1  C1BC905x    Tx  d 8  01 00 00 00 00 00 00 00
0.726559 1  CFF0105x    Tx  d 8  00 00 00 00 00 00 00 00
0.742495 1  CF090C9x    Rx  d 8  00 00 00 00 48 03 00 7D
0.742500 1  CF091C9x    Rx  d 8  40 09 B8 0B B8 0B FF FF
0.742501 1  CF092C9x    Rx  d 8  83 25 83 25 FF FF FF FF
0.742502 1  CF094C9x    Rx  d 8  FF FF FF FF 40 09 40 09
0.743425 1  C1BC905x    Tx  d 8  01 00 00 00 00 00 00 00
0.743511 1  CFF11C9x    Rx  d 8  00 00 00 00 00 00 00 00
0.743513 1  CFF12C9x    Rx  d 8  FF FF FF FF FF FF FF FF
0.743514 1  CFF13C9x    Rx  d 8  00 7D FF FF FF FF FF FF
0.746666 1  CFF0105x    Tx  d 8  00 00 00 00 00 00 00 00
0.763749 1  C1BC905x    Tx  d 8  01 00 00 00 00 00 00 00
0.766326 1  CF090C9x    Rx  d 8  00 00 00 00 48 03 00 7D
0.766331 1  CF091C9x    Rx  d 8  40 09 B8 0B B8 0B FF FF
0.766332 1  CF092C9x    Rx  d 8  83 25 83 25 FF FF FF FF
0.766333 1  CF094C9x    Rx  d 8  FF FF FF FF 40 09 40 09
0.766676 1  CFF0105x    Tx  d 8  00 00 00 00 00 00 00 00
0.767202 1  CFF11C9x    Rx  d 8  00 00 00 00 00 00 00 00
0.767204 1  CFF12C9x    Rx  d 8  FF FF FF FF FF FF FF FF
0.767205 1  CFF13C9x    Rx  d 8  00 7D FF FF FF FF FF FF
0.770774 1  1CFC5EC9x   Rx  d 8  FF FF FF FF FF FF FF FF
0.770776 1  CFF04C9x    Rx  d 8  01 00 00 FF FF FF FF FF
0.770777 1  CFF05C9x    Rx  d 8  00 00 00 00 00 00 00 00
0.770778 1  18FECAC9x   Rx  d 8  00 FF 00 00 00 00 FF FF
0.783975 1  C1BC905x    Tx  d 8  01 00 00 00 00 00 00 00
0.786793 1  CFF0105x    Tx  d 8  00 00 00 00 00 00 00 00
0.790489 1  CF090C9x    Rx  d 8  00 00 00 00 48 03 00 7D
0.790491 1  CF091C9x    Rx  d 8  40 09 B8 0B B8 0B FF FF
0.790492 1  CF092C9x    Rx  d 8  83 25 83 25 FF FF FF FF
0.790493 1  CF094C9x    Rx  d 8  FF FF FF FF 40 09 40 09
0.791404 1  CFF11C9x    Rx  d 8  00 00 00 00 00 00 00 00
0.791405 1  CFF12C9x    Rx  d 8  FF FF FF FF FF FF FF FF
0.791406 1  CFF13C9x    Rx  d 8  00 7D FF FF FF FF FF FF
0.799720 1  CF10CC9x    Rx  d 8  01 FF 01 FF FF FF 00 FF
0.799722 1  CF093C9x    Rx  d 8  00 FF 00 FF FF FF FF FF
0.799723 1  CF095C9x    Rx  d 8  65 01 FF FF FF FF FF FF
0.799724 1  CF096C9x    Rx  d 8  0F FF FF FF FF 22 FF FF
0.800640 1  CF10AC9x    Rx  d 8  01 FF 01 FF FF FF FF FF
0.800641 1  CF10BC9x    Rx  d 8  01 FF 01 FF FF FF FF FF
0.800642 1  CFA24C9x    Rx  d 8  FF FF FF 00 FF FF FF FF
0.804226 1  C1BC905x    Tx  d 8  01 00 00 00 00 00 00 00
0.806855 1  CFF0105x    Tx  d 8  00 00 00 00 00 00 00 00
0.815464 1  CF090C9x    Rx  d 8  00 00 00 00 48 03 00 7D
0.815467 1  CF091C9x    Rx  d 8  40 09 B8 0B B8 0B FF FF
0.815468 1  CF092C9x    Rx  d 8  83 25 83 25 FF FF FF FF
0.815469 1  CF094C9x    Rx  d 8  FF FF FF FF 40 09 40 09
0.816391 1  CFF11C9x    Rx  d 8  00 00 00 00 00 00 00 00
0.816393 1  CFF12C9x    Rx  d 8  FF FF FF FF FF FF FF FF
0.816394 1  CFF13C9x    Rx  d 8  00 7D FF FF FF FF FF FF
0.824528 1  C1BC905x    Tx  d 8  01 00 00 00 00 00 00 00
0.827097 1  CFF0105x    Tx  d 8  00 00 00 00 00 00 00 00
0.835502 1  CF090C9x    Rx  d 8  00 00 00 00 48 03 00 7D
0.835504 1  CF091C9x    Rx  d 8  40 09 B8 0B B8 0B FF FF
0.835505 1  CF092C9x    Rx  d 8  83 25 83 25 FF FF FF FF
0.835506 1  CF094C9x    Rx  d 8  FF FF FF FF 40 09 40 09
0.836427 1  CFF11C9x    Rx  d 8  00 00 00 00 00 00 00 00
0.836429 1  CFF12C9x    Rx  d 8  FF FF FF FF FF FF FF FF
0.836430 1  CFF13C9x    Rx  d 8  00 7D FF FF FF FF FF FF
0.844827 1  C1BC905x    Tx  d 8  01 00 00 00 00 00 00 00
0.847354 1  CFF0105x    Tx  d 8  00 00 00 00 00 00 00 00
0.859905 1  CF090C9x    Rx  d 8  00 00 00 00 48 03 00 7D
0.859907 1  CF091C9x    Rx  d 8  40 09 B8 0B B8 0B FF FF
0.859908 1  CF092C9x    Rx  d 8  83 25 83 25 FF FF FF FF
0.859909 1  CF094C9x    Rx  d 8  FF FF FF FF 40 09 40 09
0.860831 1  CFF11C9x    Rx  d 8  00 00 00 00 00 00 00 00
0.860832 1  CFF12C9x    Rx  d 8  FF FF FF FF FF FF FF FF
0.860833 1  CFF13C9x    Rx  d 8  00 7D FF FF FF FF FF FF
0.865053 1  C1BC905x    Tx  d 8  01 00 00 00 00 00 00 00
0.867653 1  CFF0105x    Tx  d 8  00 00 00 00 00 00 00 00
0.882585 1  CF090C9x    Rx  d 8  3C 00 30 00 48 03 00 7D
0.882587 1  CF091C9x    Rx  d 8  40 09 B8 0B B8 0B FF FF
0.882588 1  CF092C9x    Rx  d 8  83 25 83 25 FF FF FF FF
0.882589 1  CF094C9x    Rx  d 8  FF FF FF FF 40 09 40 09
0.883655 1  CFF11C9x    Rx  d 8  00 00 00 00 3C 00 30 00
0.883657 1  CFF12C9x    Rx  d 8  FF FF FF FF FF FF FF FF
0.883657 1  CFF13C9x    Rx  d 8  00 7D FF FF FF FF FF FF
0.885352 1  C1BC905x    Tx  d 8  01 00 00 00 00 00 00 00
0.887626 1  CFF0105x    Tx  d 8  00 00 00 00 00 00 00 00
0.900409 1  CF10CC9x    Rx  d 8  01 FF 01 FF FF FF 00 FF
0.900411 1  CF093C9x    Rx  d 8  00 FF 00 FF FF FF FF FF
0.900412 1  CF095C9x    Rx  d 8  67 01 FF FF FF FF FF FF
0.900413 1  CF096C9x    Rx  d 8  0F FF FF FF FF 21 FF FF
0.901331 1  CF10AC9x    Rx  d 8  01 FF 01 FF FF FF FF FF
0.901333 1  CF10BC9x    Rx  d 8  01 FF 01 FF FF FF FF FF
0.901334 1  CFA24C9x    Rx  d 8  FF FF FF 00 FF FF FF FF
0.905571 1  C1BC905x    Tx  d 8  01 00 00 00 00 00 00 00
