date Mon Jul 6 10:17:13.617 am 2026
base hex  timestamps absolute
internal events logged
// version 14.4.0
// Measurement UUID: 806d414c-e472-4a53-be5b-f13e550ec527
0.000000 1  CF092C9x    Rx  d 8  83 25 83 25 FF FF FF FF
0.000002 1  CF094C9x    Rx  d 8  FF FF FF FF 00 00 00 FA
0.004553 1  CFF11C9x    Rx  d 8  00 00 00 00 00 00 00 00
0.004554 1  CFF12C9x    Rx  d 8  FF FF FF FF FF FF FF FF
0.004555 1  CFF13C9x    Rx  d 8  00 7D FF FF FF FF FF FF
0.009312 1  CF090C9x    Rx  d 8  00 00 00 00 48 03 00 7D
0.009315 1  CF091C9x    Rx  d 8  00 00 B8 0B B8 0B FF FF
0.023618 1  CF092C9x    Rx  d 8  83 25 83 25 FF FF FF FF
0.023619 1  CF094C9x    Rx  d 8  FF FF FF FF 00 00 00 FA
0.028722 1  CFF11C9x    Rx  d 8  00 00 00 00 00 00 00 00
0.028724 1  CFF12C9x    Rx  d 8  FF FF FF FF FF FF FF FF
0.028725 1  CFF13C9x    Rx  d 8  00 7D FF FF FF FF FF FF
0.033523 1  CF090C9x    Rx  d 8  00 00 00 00 48 03 00 7D
0.033526 1  CF091C9x    Rx  d 8  00 00 B8 0B B8 0B FF FF
0.044199 1  CF092C9x    Rx  d 8  83 25 83 25 FF FF FF FF
0.044202 1  CF094C9x    Rx  d 8  FF FF FF FF 00 00 00 FA
0.048999 1  CFF11C9x    Rx  d 8  00 00 00 00 00 00 00 00
0.049002 1  CFF12C9x    Rx  d 8  FF FF FF FF FF FF FF FF
0.049003 1  CFF13C9x    Rx  d 8  00 7D FF FF FF FF FF FF
0.059880 1  CF090C9x    Rx  d 8  00 00 00 00 48 03 00 7D
0.059883 1  CF091C9x    Rx  d 8  00 00 B8 0B B8 0B FF FF
0.068901 1  CF092C9x    Rx  d 8  83 25 83 25 FF FF FF FF
0.068905 1  CF094C9x    Rx  d 8  FF FF FF FF 00 00 00 FA
0.073452 1  CFF11C9x    Rx  d 8  00 00 00 00 00 00 00 00
0.073455 1  CFF12C9x    Rx  d 8  FF FF FF FF FF FF FF FF
0.073457 1  CFF13C9x    Rx  d 8  00 7D FF FF FF FF FF FF
0.079756 1  CF093C9x    Rx  d 8  00 FF 00 FF FF FF FF FF
0.079758 1  CF095C9x    Rx  d 8  66 01 FF FF FF FF FF FF
0.079759 1  CF096C9x    Rx  d 8  0F FF FF FF FF 10 FF FF
0.079760 1  CF10AC9x    Rx  d 8  01 FF 01 FF FF FF FF FF
0.080708 1  CF10BC9x    Rx  d 8  01 FF 01 FF FF FF FF FF
0.084001 1  CF090C9x    Rx  d 8  00 00 00 00 48 03 00 7D
0.084005 1  CF091C9x    Rx  d 8  00 00 B8 0B B8 0B FF FF
0.089004 1  CF10CC9x    Rx  d 8  00 FF 00 FF FF FF FF FA
0.089006 1  CF092C9x    Rx  d 8  83 25 83 25 FF FF FF FF
0.089009 1  CF094C9x    Rx  d 8  FF FF FF FF 00 00 00 FA
0.089010 1  CFA24C9x    Rx  d 8  FF FF FF 00 FF FF FF FF
0.093298 1  CFF11C9x    Rx  d 8  00 00 00 00 00 00 00 00
0.093304 1  CFF12C9x    Rx  d 8  FF FF FF FF FF FF FF FF
0.093307 1  CFF13C9x    Rx  d 8  00 7D FF FF FF FF FF FF
0.105228 1  CF090C9x    Rx  d 8  00 00 00 00 48 03 00 7D
0.105230 1  CF091C9x    Rx  d 8  00 00 B8 0B B8 0B FF FF
0.109325 1  CF092C9x    Rx  d 8  83 25 83 25 FF FF FF FF
0.109329 1  CF094C9x    Rx  d 8  FF FF FF FF 00 00 00 FA
0.113574 1  CFF11C9x    Rx  d 8  00 00 00 00 00 00 00 00
0.113576 1  CFF12C9x    Rx  d 8  FF FF FF FF FF FF FF FF
0.113577 1  CFF13C9x    Rx  d 8  00 7D FF FF FF FF FF FF
0.125633 1  CF090C9x    Rx  d 8  00 00 00 00 48 03 00 7D
0.125634 1  CF091C9x    Rx  d 8  00 00 B8 0B B8 0B FF FF
0.129713 1  CF092C9x    Rx  d 8  83 25 83 25 FF FF FF FF
0.129715 1  CF094C9x    Rx  d 8  FF FF FF FF 00 00 00 FA
0.134151 1  CFF11C9x    Rx  d 8  00 00 00 00 00 00 00 00
0.134153 1  CFF12C9x    Rx  d 8  FF FF FF FF FF FF FF FF
0.134156 1  CFF13C9x    Rx  d 8  00 7D FF FF FF FF FF FF
0.148951 1  CF090C9x    Rx  d 8  00 00 00 00 48 03 00 7D
0.148954 1  CF091C9x    Rx  d 8  00 00 B8 0B B8 0B FF FF
0.153550 1  CF092C9x    Rx  d 8  83 25 83 25 FF FF FF FF
0.153552 1  CF094C9x    Rx  d 8  FF FF FF FF 00 00 00 FA
0.160395 1  CFF11C9x    Rx  d 8  00 00 00 00 00 00 00 00
0.160397 1  CFF12C9x    Rx  d 8  FF FF FF FF FF FF FF FF
0.160398 1  CFF13C9x    Rx  d 8  00 7D FF FF FF FF FF FF
0.169271 1  CF090C9x    Rx  d 8  00 00 00 00 48 03 00 7D
0.169273 1  CF091C9x    Rx  d 8  00 00 B8 0B B8 0B FF FF
0.173562 1  CF092C9x    Rx  d 8  83 25 83 25 FF FF FF FF
0.173566 1  CF094C9x    Rx  d 8  FF FF FF FF 00 00 00 FA
0.179864 1  CF093C9x    Rx  d 8  00 00 00 00 FF FF FF FF
0.179866 1  CF095C9x    Rx  d 8  66 01 FF FF FF FF FF FF
0.179868 1  CF096C9x    Rx  d 8  0F FF FF FF FF 10 FF FF
0.179868 1  CF10AC9x    Rx  d 8  01 FF 01 FF FF FF FF FF
0.180846 1  CF10BC9x    Rx  d 8  01 FF 01 FF FF FF FF FF
0.184195 1  CFF11C9x    Rx  d 8  00 00 00 00 00 00 00 00
0.184197 1  CFF12C9x    Rx  d 8  FF FF FF FF FF FF FF FF
0.184202 1  CFF13C9x    Rx  d 8  00 7D FF FF FF FF FF FF
0.189274 1  CF090C9x    Rx  d 8  00 00 00 00 48 03 00 7D
0.189276 1  CF091C9x    Rx  d 8  00 00 B8 0B B8 0B FF FF
0.189277 1  CF10CC9x    Rx  d 8  00 FF 00 FF FF FF FF FA
0.189278 1  CFA24C9x    Rx  d 8  FF FF FF 00 FF FF FF FF
0.193577 1  CF092C9x    Rx  d 8  83 25 83 25 FF FF FF FF
0.193579 1  CF094C9x    Rx  d 8  FF FF FF FF 00 00 00 FA
0.204700 1  CFF11C9x    Rx  d 8  00 00 00 00 00 00 00 00
0.204703 1  CFF12C9x    Rx  d 8  FF FF FF FF FF FF FF FF
0.204706 1  CFF13C9x    Rx  d 8  00 7D FF FF FF FF FF FF
0.213435 1  CF090C9x    Rx  d 8  00 00 00 00 48 03 00 7D
0.213437 1  CF091C9x    Rx  d 8  00 00 B8 0B B8 0B FF FF
0.219979 1  CF092C9x    Rx  d 8  83 25 83 25 FF FF FF FF
0.219982 1  CF094C9x    Rx  d 8  FF FF FF FF 00 00 00 FA
0.228823 1  CFF11C9x    Rx  d 8  00 00 00 00 00 00 00 00
0.228826 1  CFF12C9x    Rx  d 8  FF FF FF FF FF FF FF FF
0.228827 1  CFF13C9x    Rx  d 8  00 7D FF FF FF FF FF FF
0.239812 1  CF090C9x    Rx  d 8  00 00 00 00 48 03 00 7D
0.239814 1  CF091C9x    Rx  d 8  00 00 B8 0B B8 0B FF FF
0.244067 1  CF092C9x    Rx  d 8  83 25 83 25 FF FF FF FF
0.244069 1  CF094C9x    Rx  d 8  FF FF FF FF 00 00 00 FA
0.249102 1  CFF11C9x    Rx  d 8  00 00 00 00 00 00 00 00
0.249104 1  CFF12C9x    Rx  d 8  FF FF FF FF FF FF FF FF
0.249105 1  CFF13C9x    Rx  d 8  00 7D FF FF FF FF FF FF
0.260583 1  CF090C9x    Rx  d 8  00 00 00 00 48 03 00 7D
0.260585 1  CF091C9x    Rx  d 8  00 00 B8 0B B8 0B FF FF
0.265479 1  CF092C9x    Rx  d 8  83 25 83 25 FF FF FF FF
0.265481 1  CF094C9x    Rx  d 8  FF FF FF FF 00 00 00 FA
0.269702 1  CFF11C9x    Rx  d 8  00 00 00 00 00 00 00 00
0.269705 1  CFF12C9x    Rx  d 8  FF FF FF FF FF FF FF FF
0.269706 1  CFF13C9x    Rx  d 8  00 7D FF FF FF FF FF FF
0.280037 1  CF093C9x    Rx  d 8  00 FF 00 FF FF FF FF FF
0.280039 1  CF095C9x    Rx  d 8  65 01 FF FF FF FF FF FF
0.280040 1  CF096C9x    Rx  d 8  0F FF FF FF FF 10 FF FF
0.280041 1  CF10AC9x    Rx  d 8  01 FF 01 FF FF FF FF FF
0.280952 1  CF10BC9x    Rx  d 8  01 FF 01 FF FF FF FF FF
0.284403 1  CF090C9x    Rx  d 8  00 00 00 00 48 03 00 7D
0.284405 1  CF091C9x    Rx  d 8  00 00 B8 0B B8 0B FF FF
0.288532 1  CF092C9x    Rx  d 8  83 25 83 25 FF FF FF FF
0.288535 1  CF094C9x    Rx  d 8  FF FF FF FF 00 00 00 FA
0.293438 1  CF10CC9x    Rx  d 8  00 FF 00 FF FF FF FF FA
0.293440 1  CFA24C9x    Rx  d 8  FF FF FF 00 FF FF FF FF
0.293441 1  CFF11C9x    Rx  d 8  00 00 00 00 00 00 00 00
0.293442 1  CFF12C9x    Rx  d 8  FF FF FF FF FF FF FF FF
0.294576 1  CFF13C9x    Rx  d 8  00 7D FF FF FF FF FF FF
0.309251 1  CF090C9x    Rx  d 8  00 00 00 00 48 03 00 7D
0.309253 1  CF091C9x    Rx  d 8  00 00 B8 0B B8 0B FF FF
0.309257 1  CF092C9x    Rx  d 8  83 25 83 25 FF FF FF FF
0.309258 1  CF094C9x    Rx  d 8  FF FF FF FF 00 00 00 FA
0.319350 1  CFF11C9x    Rx  d 8  00 00 00 00 00 00 00 00
0.319353 1  CFF12C9x    Rx  d 8  FF FF FF FF FF FF FF FF
0.319354 1  CFF13C9x    Rx  d 8  00 7D FF FF FF FF FF FF
0.333648 1  CF090C9x    Rx  d 8  00 00 00 00 48 03 00 7D
0.333650 1  CF091C9x    Rx  d 8  00 00 B8 0B B8 0B FF FF
0.333652 1  CF092C9x    Rx  d 8  83 25 83 25 FF FF FF FF
0.333654 1  CF094C9x    Rx  d 8  FF FF FF FF 00 00 00 FA
0.340086 1  CFF11C9x    Rx  d 8  00 00 00 00 00 00 00 00
0.340089 1  CFF12C9x    Rx  d 8  FF FF FF FF FF FF FF FF
0.340090 1  CFF13C9x    Rx  d 8  00 7D FF FF FF FF FF FF
0.360295 1  CF090C9x    Rx  d 8  00 00 00 00 48 03 00 7D
0.360297 1  CF091C9x    Rx  d 8  00 00 B8 0B B8 0B FF FF
0.360299 1  CF092C9x    Rx  d 8  83 25 83 25 FF FF FF FF
0.360300 1  CF094C9x    Rx  d 8  FF FF FF FF 00 00 00 FA
0.361404 1  CFF11C9x    Rx  d 8  00 00 00 00 00 00 00 00
0.361406 1  CFF12C9x    Rx  d 8  FF FF FF FF FF FF FF FF
0.361408 1  CFF13C9x    Rx  d 8  00 7D FF FF FF FF FF FF
0.384135 1  CF090C9x    Rx  d 8  00 00 00 00 48 03 00 7D
0.384137 1  CF091C9x    Rx  d 8  00 00 B8 0B B8 0B FF FF
0.384138 1  CF092C9x    Rx  d 8  83 25 83 25 FF FF FF FF
0.384140 1  CF093C9x    Rx  d 8  00 00 00 00 FF FF FF FF
0.385085 1  CF094C9x    Rx  d 8  FF FF FF FF 00 00 00 FA
0.385087 1  CF095C9x    Rx  d 8  66 01 FF FF FF FF FF FF
0.385090 1  CF096C9x    Rx  d 8  0F FF FF FF FF 10 FF FF
0.385092 1  CF10AC9x    Rx  d 8  01 FF 01 FF FF FF FF FF
0.386242 1  CF10BC9x    Rx  d 8  01 FF 01 FF FF FF FF FF
0.386244 1  CFF11C9x    Rx  d 8  00 00 00 00 00 00 00 00
0.386245 1  CFF12C9x    Rx  d 8  FF FF FF FF FF FF FF FF
0.386248 1  CFF13C9x    Rx  d 8  00 7D FF FF FF FF FF FF
0.393645 1  CF10CC9x    Rx  d 8  00 FF 00 FF FF FF FF FA
0.393648 1  CFA24C9x    Rx  d 8  FF FF FF 00 FF FF FF FF
0.405621 1  CF090C9x    Rx  d 8  00 00 00 00 48 03 00 7D
0.405623 1  CF091C9x    Rx  d 8  00 00 B8 0B B8 0B FF FF
0.405624 1  CF092C9x    Rx  d 8  83 25 83 25 FF FF FF FF
0.405627 1  CF094C9x    Rx  d 8  FF FF FF FF 00 00 00 FA
0.406731 1  CFF11C9x    Rx  d 8  00 00 00 00 00 00 00 00
0.406733 1  CFF12C9x    Rx  d 8  FF FF FF FF FF FF FF FF
0.406735 1  CFF13C9x    Rx  d 8  00 7D FF FF FF FF FF FF
0.429647 1  CF090C9x    Rx  d 8  00 00 00 00 48 03 00 7D
0.429649 1  CF091C9x    Rx  d 8  00 00 B8 0B B8 0B FF FF
0.429650 1  CF092C9x    Rx  d 8  83 25 83 25 FF FF FF FF
0.429651 1  CF094C9x    Rx  d 8  FF FF FF FF 00 00 00 FA
0.430583 1  CFF11C9x    Rx  d 8  00 00 00 00 00 00 00 00
0.430585 1  CFF12C9x    Rx  d 8  FF FF FF FF FF FF FF FF
0.430586 1  CFF13C9x    Rx  d 8  00 7D FF FF FF FF FF FF
0.453699 1  CF090C9x    Rx  d 8  00 00 00 00 48 03 00 7D
0.453701 1  CF091C9x    Rx  d 8  00 00 B8 0B B8 0B FF FF
0.453702 1  CF092C9x    Rx  d 8  83 25 83 25 FF FF FF FF
0.453703 1  CF094C9x    Rx  d 8  FF FF FF FF 00 00 00 FA
0.454834 1  CFF11C9x    Rx  d 8  00 00 00 00 00 00 00 00
0.454835 1  CFF12C9x    Rx  d 8  FF FF FF FF FF FF FF FF
0.454836 1  CFF13C9x    Rx  d 8  00 7D FF FF FF FF FF FF
0.479954 1  CF090C9x    Rx  d 8  00 00 00 00 48 03 00 7D
0.479956 1  CF091C9x    Rx  d 8  00 00 B8 0B B8 0B FF FF
0.479960 1  CF092C9x    Rx  d 8  83 25 83 25 FF FF FF FF
0.479961 1  CF094C9x    Rx  d 8  FF FF FF FF 00 00 00 FA
0.480907 1  CFF11C9x    Rx  d 8  00 00 00 00 00 00 00 00
0.480908 1  CFF12C9x    Rx  d 8  FF FF FF FF FF FF FF FF
0.480909 1  CFF13C9x    Rx  d 8  00 7D FF FF FF FF FF FF
0.484280 1  CF093C9x    Rx  d 8  00 00 00 00 FF FF FF FF
0.484283 1  CF095C9x    Rx  d 8  67 01 FF FF FF FF FF FF
0.484284 1  CF096C9x    Rx  d 8  0F FF FF FF FF 10 FF FF
0.484285 1  CF10AC9x    Rx  d 8  01 FF 01 FF FF FF FF FF
0.485273 1  CF10BC9x    Rx  d 8  01 FF 01 FF FF FF FF FF
0.500203 1  CF090C9x    Rx  d 8  00 00 00 00 48 03 00 7D
0.500205 1  CF091C9x    Rx  d 8  00 00 B8 0B B8 0B FF FF
0.500206 1  CF092C9x    Rx  d 8  83 25 83 25 FF FF FF FF
0.500207 1  CF094C9x    Rx  d 8  FF FF FF FF 00 00 00 FA
0.501156 1  CF10CC9x    Rx  d 8  00 FF 00 FF FF FF FF FA
0.501160 1  CFA24C9x    Rx  d 8  FF FF FF 00 FF FF FF FF
0.501161 1  CFF11C9x    Rx  d 8  00 00 00 00 00 00 00 00
0.501162 1  CFF12C9x    Rx  d 8  FF FF FF FF FF FF FF FF
0.502309 1  CFF13C9x    Rx  d 8  00 7D FF FF FF FF FF FF
0.520057 1  CF090C9x    Rx  d 8  00 00 00 00 48 03 00 7D
0.520059 1  CF091C9x    Rx  d 8  00 00 B8 0B B8 0B FF FF
0.520061 1  CF092C9x    Rx  d 8  83 25 83 25 FF FF FF FF
0.520062 1  CF094C9x    Rx  d 8  FF FF FF FF 00 00 00 FA
0.521226 1  CFF11C9x    Rx  d 8  00 00 00 00 00 00 00 00
0.521229 1  CFF12C9x    Rx  d 8  FF FF FF FF FF FF FF FF
0.521229 1  CFF13C9x    Rx  d 8  00 7D FF FF FF FF FF FF
0.543838 1  CF090C9x    Rx  d 8  00 00 00 00 48 03 00 7D
0.543840 1  CF091C9x    Rx  d 8  00 00 B8 0B B8 0B FF FF
0.543840 1  CF092C9x    Rx  d 8  83 25 83 25 FF FF FF FF
0.543841 1  CF094C9x    Rx  d 8  FF FF FF FF 00 00 00 FA
0.544886 1  CFF11C9x    Rx  d 8  00 00 00 00 00 00 00 00
0.544887 1  CFF12C9x    Rx  d 8  FF FF FF FF FF FF FF FF
0.544889 1  CFF13C9x    Rx  d 8  00 7D FF FF FF FF FF FF
0.564410 1  CF090C9x    Rx  d 8  00 00 00 00 48 03 00 7D
0.564414 1  CF091C9x    Rx  d 8  00 00 B8 0B B8 0B FF FF
0.564415 1  CF092C9x    Rx  d 8  83 25 83 25 FF FF FF FF
0.564415 1  CF094C9x    Rx  d 8  FF FF FF FF 00 00 00 FA
0.565357 1  CFF11C9x    Rx  d 8  00 00 00 00 00 00 00 00
0.565359 1  CFF12C9x    Rx  d 8  FF FF FF FF FF FF FF FF
0.565360 1  CFF13C9x    Rx  d 8  00 7D FF FF FF FF FF FF
0.588827 1  CF090C9x    Rx  d 8  00 00 00 00 48 03 00 7D
0.588829 1  CF091C9x    Rx  d 8  00 00 B8 0B B8 0B FF FF
0.588830 1  CF092C9x    Rx  d 8  83 25 83 25 FF FF FF FF
0.588835 1  CF093C9x    Rx  d 8  00 FF 00 FF FF FF FF FF
0.589773 1  CF094C9x    Rx  d 8  FF FF FF FF 00 00 00 FA
0.589774 1  CF095C9x    Rx  d 8  67 01 FF FF FF FF FF FF
0.589775 1  CF096C9x    Rx  d 8  0F FF FF FF FF 10 FF FF
0.589776 1  CF10AC9x    Rx  d 8  01 FF 01 FF FF FF FF FF
0.590908 1  CF10BC9x    Rx  d 8  01 FF 01 FF FF FF FF FF
0.590911 1  CFF11C9x    Rx  d 8  00 00 00 00 00 00 00 00
0.590913 1  CFF12C9x    Rx  d 8  FF FF FF FF FF FF FF FF
0.590914 1  CFF13C9x    Rx  d 8  00 7D FF FF FF FF FF FF
0.604622 1  CF10CC9x    Rx  d 8  00 FF 00 FF FF FF FF FA
0.604624 1  CFA24C9x    Rx  d 8  FF FF FF 00 FF FF FF FF
0.609492 1  CF090C9x    Rx  d 8  00 00 00 00 48 03 00 7D
0.609497 1  CF091C9x    Rx  d 8  00 00 B8 0B B8 0B FF FF
0.609498 1  CF092C9x    Rx  d 8  83 25 83 25 FF FF FF FF
0.609499 1  CF094C9x    Rx  d 8  FF FF FF FF 00 00 00 FA
0.610554 1  CFF11C9x    Rx  d 8  00 00 00 00 00 00 00 00
0.610556 1  CFF12C9x    Rx  d 8  FF FF FF FF FF FF FF FF
0.610557 1  CFF13C9x    Rx  d 8  00 7D FF FF FF FF FF FF
0.633852 1  CF090C9x    Rx  d 8  00 00 00 00 48 03 00 7D
0.633855 1  CF091C9x    Rx  d 8  00 00 B8 0B B8 0B FF FF
0.633858 1  CF092C9x    Rx  d 8  83 25 83 25 FF FF FF FF
0.633860 1  CF094C9x    Rx  d 8  FF FF FF FF 00 00 00 FA
0.634809 1  CFF11C9x    Rx  d 8  00 00 00 00 00 00 00 00
0.634810 1  CFF12C9x    Rx  d 8  FF FF FF FF FF FF FF FF
0.634811 1  CFF13C9x    Rx  d 8  00 7D FF FF FF FF FF FF
0.660368 1  CF090C9x    Rx  d 8  00 00 00 00 48 03 00 7D
0.660370 1  CF091C9x    Rx  d 8  00 00 B8 0B B8 0B FF FF
0.660374 1  CF092C9x    Rx  d 8  83 25 83 25 FF FF FF FF
0.660375 1  CF094C9x    Rx  d 8  FF FF FF FF 00 00 00 FA
0.661309 1  CFF11C9x    Rx  d 8  00 00 00 00 00 00 00 00
0.661310 1  CFF12C9x    Rx  d 8  FF FF FF FF FF FF FF FF
0.661312 1  CFF13C9x    Rx  d 8  00 7D FF FF FF FF FF FF
0.684195 1  CF090C9x    Rx  d 8  00 00 00 00 48 03 00 7D
0.684197 1  CF091C9x    Rx  d 8  00 00 B8 0B B8 0B FF FF
0.684198 1  CF092C9x    Rx  d 8  83 25 83 25 FF FF FF FF
0.684199 1  CF094C9x    Rx  d 8  FF FF FF FF 00 00 00 FA
0.685145 1  CFF11C9x    Rx  d 8  00 00 00 00 00 00 00 00
0.685146 1  CFF12C9x    Rx  d 8  FF FF FF FF FF FF FF FF
0.685148 1  CFF13C9x    Rx  d 8  00 7D FF FF FF FF FF FF
0.689356 1  CF093C9x    Rx  d 8  00 FF 00 FF FF FF FF FF
0.689359 1  CF095C9x    Rx  d 8  67 01 FF FF FF FF FF FF
0.689363 1  CF096C9x    Rx  d 8  0F FF FF FF FF 10 FF FF
0.689365 1  CF10AC9x    Rx  d 8  01 FF 01 FF FF FF FF FF
0.690332 1  CF10BC9x    Rx  d 8  01 FF 01 FF FF FF FF FF
0.704775 1  CF090C9x    Rx  d 8  00 00 00 00 48 03 00 7D
0.704779 1  CF091C9x    Rx  d 8  00 00 B8 0B B8 0B FF FF
0.704781 1  CF092C9x    Rx  d 8  83 25 83 25 FF FF FF FF
0.704784 1  CF094C9x    Rx  d 8  FF FF FF FF 00 00 00 FA
0.705708 1  CF10CC9x    Rx  d 8  00 FF 00 FF FF FF FF FA
0.705709 1  CFA24C9x    Rx  d 8  FF FF FF 00 FF FF FF FF
0.705711 1  CFF11C9x    Rx  d 8  00 00 00 00 00 00 00 00
0.705713 1  CFF12C9x    Rx  d 8  FF FF FF FF FF FF FF FF
0.706931 1  CFF13C9x    Rx  d 8  00 7D FF FF FF FF FF FF
0.729253 1  CF090C9x    Rx  d 8  00 00 00 00 48 03 00 7D
0.729254 1  CF091C9x    Rx  d 8  00 00 B8 0B B8 0B FF FF
0.729255 1  CF092C9x    Rx  d 8  83 25 83 25 FF FF FF FF
0.729256 1  CF094C9x    Rx  d 8  FF FF FF FF 00 00 00 FA
0.730276 1  CFF11C9x    Rx  d 8  00 00 00 00 00 00 00 00
0.730280 1  CFF12C9x    Rx  d 8  FF FF FF FF FF FF FF FF
0.730280 1  CFF13C9x    Rx  d 8  00 7D FF FF FF FF FF FF
0.753703 1  CF090C9x    Rx  d 8  00 00 00 00 48 03 00 7D
0.753705 1  CF091C9x    Rx  d 8  00 00 B8 0B B8 0B FF FF
0.753708 1  CF092C9x    Rx  d 8  83 25 83 25 FF FF FF FF
0.753709 1  CF094C9x    Rx  d 8  FF FF FF FF 00 00 00 FA
0.754792 1  CFF11C9x    Rx  d 8  00 00 00 00 00 00 00 00
0.754794 1  CFF12C9x    Rx  d 8  FF FF FF FF FF FF FF FF
0.754795 1  CFF13C9x    Rx  d 8  00 7D FF FF FF FF FF FF
0.774214 1  CF090C9x    Rx  d 8  00 00 00 00 48 03 00 7D
0.774216 1  CF091C9x    Rx  d 8  00 00 B8 0B B8 0B FF FF
0.774216 1  CF092C9x    Rx  d 8  83 25 83 25 FF FF FF FF
0.774216 1  CF094C9x    Rx  d 8  FF FF FF FF 00 00 00 FA
0.775338 1  CFF11C9x    Rx  d 8  00 00 00 00 00 00 00 00
0.775339 1  CFF12C9x    Rx  d 8  FF FF FF FF FF FF FF FF
0.775339 1  CFF13C9x    Rx  d 8  00 7D FF FF FF FF FF FF
0.794002 1  CF093C9x    Rx  d 8  00 FF 00 FF FF FF FF FF
0.794004 1  CF095C9x    Rx  d 8  67 01 FF FF FF FF FF FF
0.794005 1  CF096C9x    Rx  d 8  0F FF FF FF FF 10 FF FF
0.794006 1  CF10AC9x    Rx  d 8  01 FF 01 FF FF FF FF FF
0.795055 1  CF10BC9x    Rx  d 8  01 FF 01 FF FF FF FF FF
0.800647 1  CF090C9x    Rx  d 8  00 00 00 00 48 03 00 7D
0.800649 1  CF091C9x    Rx  d 8  00 00 B8 0B B8 0B FF FF
0.800650 1  CF092C9x    Rx  d 8  83 25 83 25 FF FF FF FF
0.800651 1  CF094C9x    Rx  d 8  FF FF FF FF 00 00 00 FA
0.801687 1  CFF11C9x    Rx  d 8  00 00 00 00 00 00 00 00
0.801689 1  CFF12C9x    Rx  d 8  FF FF FF FF FF FF FF FF
0.801689 1  CFF13C9x    Rx  d 8  00 7D FF FF FF FF FF FF
0.805943 1  CF10CC9x    Rx  d 8  00 FF 00 FF FF FF FF FA
0.805944 1  CFA24C9x    Rx  d 8  FF FF FF 00 FF FF FF FF
0.824327 1  CF090C9x    Rx  d 8  00 00 00 00 48 03 00 7D
0.824328 1  CF091C9x    Rx  d 8  00 00 B8 0B B8 0B FF FF
0.824329 1  CF092C9x    Rx  d 8  83 25 83 25 FF FF FF FF
0.824330 1  CF094C9x    Rx  d 8  FF FF FF FF 00 00 00 FA
0.825519 1  CFF11C9x    Rx  d 8  00 00 00 00 00 00 00 00
0.825521 1  CFF12C9x    Rx  d 8  FF FF FF FF FF FF FF FF
0.825522 1  CFF13C9x    Rx  d 8  00 7D FF FF FF FF FF FF
0.849135 1  CF090C9x    Rx  d 8  00 00 00 00 48 03 00 7D
0.849137 1  CF091C9x    Rx  d 8  00 00 B8 0B B8 0B FF FF
0.849139 1  CF092C9x    Rx  d 8  83 25 83 25 FF FF FF FF
0.849140 1  CF094C9x    Rx  d 8  FF FF FF FF 00 00 00 FA
0.850087 1  CFF11C9x    Rx  d 8  00 00 00 00 00 00 00 00
0.850089 1  CFF12C9x    Rx  d 8  FF FF FF FF FF FF FF FF
0.850090 1  CFF13C9x    Rx  d 8  00 7D FF FF FF FF FF FF
0.869820 1  CF090C9x    Rx  d 8  00 00 00 00 48 03 00 7D
0.869823 1  CF091C9x    Rx  d 8  00 00 B8 0B B8 0B FF FF
0.869824 1  CF092C9x    Rx  d 8  83 25 83 25 FF FF FF FF
0.869825 1  CF094C9x    Rx  d 8  FF FF FF FF 00 00 00 FA
0.870770 1  CFF11C9x    Rx  d 8  00 00 00 00 00 00 00 00
0.870772 1  CFF12C9x    Rx  d 8  FF FF FF FF FF FF FF FF
0.870773 1  CFF13C9x    Rx  d 8  00 7D FF FF FF FF FF FF
0.893776 1  CF090C9x    Rx  d 8  00 00 00 00 48 03 00 7D
0.893778 1  CF091C9x    Rx  d 8  00 00 B8 0B B8 0B FF FF
0.893780 1  CF092C9x    Rx  d 8  83 25 83 25 FF FF FF FF
0.893781 1  CF094C9x    Rx  d 8  FF FF FF FF 00 00 00 FA
0.894734 1  CFF11C9x    Rx  d 8  00 00 00 00 00 00 00 00
0.894736 1  CFF12C9x    Rx  d 8  FF FF FF FF FF FF FF FF
0.894737 1  CFF13C9x    Rx  d 8  00 7D FF FF FF FF FF FF
0.900587 1  CF093C9x    Rx  d 8  00 00 00 00 FF FF FF FF
0.900590 1  CF095C9x    Rx  d 8  69 01 FF FF FF FF FF FF
0.900591 1  CF096C9x    Rx  d 8  0F FF FF FF FF 10 FF FF
0.900592 1  CF10AC9x    Rx  d 8  01 FF 01 FF FF FF FF FF
0.901533 1  CF10BC9x    Rx  d 8  01 FF 01 FF FF FF FF FF
0.906150 1  CF10CC9x    Rx  d 8  00 FF 00 FF FF FF FF FA
0.906152 1  CFA24C9x    Rx  d 8  FF FF FF 00 FF FF FF FF
0.915689 1  CF090C9x    Rx  d 8  00 00 00 00 48 03 00 7D
0.915692 1  CF091C9x    Rx  d 8  00 00 B8 0B B8 0B FF FF
0.915694 1  CF092C9x    Rx  d 8  83 25 83 25 FF FF FF FF
0.915694 1  CF094C9x    Rx  d 8  FF FF FF FF 00 00 00 FA
0.916645 1  CFF11C9x    Rx  d 8  00 00 00 00 00 00 00 00
0.916647 1  CFF12C9x    Rx  d 8  FF FF FF FF FF FF FF FF
0.916648 1  CFF13C9x    Rx  d 8  00 7D FF FF FF FF FF FF
0.939704 1  CF090C9x    Rx  d 8  00 00 00 00 48 03 00 7D
0.939706 1  CF091C9x    Rx  d 8  00 00 B8 0B B8 0B FF FF
0.939707 1  CF092C9x    Rx  d 8  83 25 83 25 FF FF FF FF
0.939708 1  CF094C9x    Rx  d 8  FF FF FF FF 00 00 00 FA
0.940647 1  CFF11C9x    Rx  d 8  00 00 00 00 00 00 00 00
0.940649 1  CFF12C9x    Rx  d 8  FF FF FF FF FF FF FF FF
0.940650 1  CFF13C9x    Rx  d 8  00 7D FF FF FF FF FF FF
0.960720 1  CF090C9x    Rx  d 8  00 00 00 00 48 03 00 7D
0.960723 1  CF091C9x    Rx  d 8  00 00 B8 0B B8 0B FF FF
0.960724 1  CF092C9x    Rx  d 8  83 25 83 25 FF FF FF FF
0.960725 1  CF094C9x    Rx  d 8  FF FF FF FF 00 00 00 FA
0.961657 1  CFF11C9x    Rx  d 8  00 00 00 00 00 00 00 00
0.961659 1  CFF12C9x    Rx  d 8  FF FF FF FF FF FF FF FF
0.961661 1  CFF13C9x    Rx  d 8  00 7D FF FF FF FF FF FF
0.980104 1  1CFC5EC9x   Rx  d 8  FF FF FF FF FF FF FF FF
0.980108 1  CFF04C9x    Rx  d 8  00 00 00 FF FF FF FF FF
0.984369 1  CF090C9x    Rx  d 8  00 00 00 00 48 03 00 7D
0.984372 1  CF091C9x    Rx  d 8  00 00 B8 0B B8 0B FF FF
0.984373 1  CF092C9x    Rx  d 8  83 25 83 25 FF FF FF FF
0.984375 1  CF094C9x    Rx  d 8  FF FF FF FF 00 00 00 FA
0.985309 1  CFF05C9x    Rx  d 8  00 00 00 00 00 00 00 00
0.985311 1  CFF11C9x    Rx  d 8  00 00 00 00 00 00 00 00
0.985313 1  CFF12C9x    Rx  d 8  FF FF FF FF FF FF FF FF
0.985314 1  CFF13C9x    Rx  d 8  00 7D FF FF FF FF FF FF
0.990131 1  18FECAC9x   Rx  d 8  00 FF 00 00 00 00 FF FF
1.004620 1  CF090C9x    Rx  d 8  00 00 00 00 48 03 00 7D
1.004622 1  CF091C9x    Rx  d 8  00 00 B8 0B B8 0B FF FF
1.004624 1  CF092C9x    Rx  d 8  83 25 83 25 FF FF FF FF
1.004626 1  CF093C9x    Rx  d 8  00 00 00 00 FF FF FF FF
1.005717 1  CF094C9x    Rx  d 8  FF FF FF FF 00 00 00 FA
1.005719 1  CF095C9x    Rx  d 8  67 01 FF FF FF FF FF FF
1.005720 1  CF096C9x    Rx  d 8  0F FF FF FF FF 10 FF FF
1.005722 1  CF10AC9x    Rx  d 8  01 FF 01 FF FF FF FF FF
1.006832 1  CF10BC9x    Rx  d 8  01 FF 01 FF FF FF FF FF
1.006834 1  CFF11C9x    Rx  d 8  00 00 00 00 00 00 00 00
1.006836 1  CFF12C9x    Rx  d 8  FF FF FF FF FF FF FF FF
1.006837 1  CFF13C9x    Rx  d 8  00 7D FF FF FF FF FF FF
1.010173 1  CF10CC9x    Rx  d 8  00 FF 00 FF FF FF FF FA
1.010175 1  CFA24C9x    Rx  d 8  FF FF FF 00 FF FF FF FF
1.029175 1  CF090C9x    Rx  d 8  00 00 00 00 48 03 00 7D
1.029177 1  CF091C9x    Rx  d 8  00 00 B8 0B B8 0B FF FF
1.029178 1  CF092C9x    Rx  d 8  83 25 83 25 FF FF FF FF
1.029179 1  CF094C9x    Rx  d 8  FF FF FF FF 00 00 00 FA
1.030256 1  CFF11C9x    Rx  d 8  00 00 00 00 00 00 00 00
1.030258 1  CFF12C9x    Rx  d 8  FF FF FF FF FF FF FF FF
1.030259 1  CFF13C9x    Rx  d 8  00 7D FF FF FF FF FF FF
1.054003 1  CF090C9x    Rx  d 8  00 00 00 00 48 03 00 7D
1.054005 1  CF091C9x    Rx  d 8  00 00 B8 0B B8 0B FF FF
1.054006 1  CF092C9x    Rx  d 8  83 25 83 25 FF FF FF FF
1.054020 1  CF094C9x    Rx  d 8  FF FF FF FF 00 00 00 FA
1.054883 1  CFF11C9x    Rx  d 8  00 00 00 00 00 00 00 00
1.054884 1  CFF12C9x    Rx  d 8  FF FF FF FF FF FF FF FF
1.054885 1  CFF13C9x    Rx  d 8  00 7D FF FF FF FF FF FF
1.074366 1  CF090C9x    Rx  d 8  00 00 00 00 48 03 00 7D
1.074368 1  CF091C9x    Rx  d 8  00 00 B8 0B B8 0B FF FF
1.074369 1  CF092C9x    Rx  d 8  83 25 83 25 FF FF FF FF
1.074370 1  CF094C9x    Rx  d 8  FF FF FF FF 00 00 00 FA
1.075426 1  CFF11C9x    Rx  d 8  00 00 00 00 00 00 00 00
1.075427 1  CFF12C9x    Rx  d 8  FF FF FF FF FF FF FF FF
1.075428 1  CFF13C9x    Rx  d 8  00 7D FF FF FF FF FF FF
1.100458 1  CF090C9x    Rx  d 8  00 00 00 00 48 03 00 7D
1.100460 1  CF091C9x    Rx  d 8  00 00 B8 0B B8 0B FF FF
1.100461 1  CF092C9x    Rx  d 8  83 25 83 25 FF FF FF FF
1.100462 1  CF094C9x    Rx  d 8  FF FF FF FF 00 00 00 FA
1.101383 1  CFF11C9x    Rx  d 8  00 00 00 00 00 00 00 00
1.101385 1  CFF12C9x    Rx  d 8  FF FF FF FF FF FF FF FF
1.101386 1  CFF13C9x    Rx  d 8  00 7D FF FF FF FF FF FF
1.104943 1  CF093C9x    Rx  d 8  00 00 00 00 FF FF FF FF
1.104945 1  CF095C9x    Rx  d 8  69 01 FF FF FF FF FF FF
1.104946 1  CF096C9x    Rx  d 8  0F FF FF FF FF 10 FF FF
1.104947 1  CF10AC9x    Rx  d 8  01 FF 01 FF FF FF FF FF
1.105913 1  CF10BC9x    Rx  d 8  01 FF 01 FF FF FF FF FF
1.113861 1  CF10CC9x    Rx  d 8  00 FF 00 FF FF FF FF FA
1.113863 1  CFA24C9x    Rx  d 8  FF FF FF 00 FF FF FF FF
1.120394 1  CF090C9x    Rx  d 8  00 00 00 00 48 03 00 7D
1.120396 1  CF091C9x    Rx  d 8  00 00 B8 0B B8 0B FF FF
1.120397 1  CF092C9x    Rx  d 8  83 25 83 25 FF FF FF FF
1.120398 1  CF094C9x    Rx  d 8  FF FF FF FF 00 00 00 FA
1.121477 1  CFF11C9x    Rx  d 8  00 00 00 00 00 00 00 00
1.121478 1  CFF12C9x    Rx  d 8  FF FF FF FF FF FF FF FF
1.121479 1  CFF13C9x    Rx  d 8  00 7D FF FF FF FF FF FF
1.143923 1  CF090C9x    Rx  d 8  00 00 00 00 48 03 00 7D
1.143925 1  CF091C9x    Rx  d 8  00 00 B8 0B B8 0B FF FF
1.143926 1  CF092C9x    Rx  d 8  83 25 83 25 FF FF FF FF
1.143927 1  CF094C9x    Rx  d 8  FF FF FF FF 00 00 00 FA
1.145009 1  CFF11C9x    Rx  d 8  00 00 00 00 00 00 00 00
1.145010 1  CFF12C9x    Rx  d 8  FF FF FF FF FF FF FF FF
