date Mon Jul 6 10:10:13.979 am 2026
base hex  timestamps absolute
internal events logged
// version 14.4.0
// Measurement UUID: 806d414c-e472-4a53-be5b-f13e550ec527
0.000000 1  C1BC905x    Tx  d 8  00 00 00 00 00 00 00 00
0.004747 1  4           Rx  d 8  00 0C 00 00 00 00 00 00
0.005965 1  4           Rx  d 8  00 30 00 00 00 00 00 00
1.001697 1  C1BC905x    Tx  d 8  00 00 00 00 00 00 00 00
1.021728 1  C1BC905x    Tx  d 8  00 00 00 00 00 00 00 00
1.041776 1  C1BC905x    Tx  d 8  00 00 00 00 00 00 00 00
1.061802 1  C1BC905x    Tx  d 8  00 00 00 00 00 00 00 00
1.081828 1  C1BC905x    Tx  d 8  00 00 00 00 00 00 00 00
1.101852 1  C1BC905x    Tx  d 8  00 00 00 00 00 00 00 00
1.121877 1  C1BC905x    Tx  d 8  00 00 00 00 00 00 00 00
1.141953 1  C1BC905x    Tx  d 8  00 00 00 00 00 00 00 00
1.161983 1  C1BC905x    Tx  d 8  00 00 00 00 00 00 00 00
1.182078 1  C1BC905x    Tx  d 8  00 00 00 00 00 00 00 00
1.202101 1  C1BC905x    Tx  d 8  00 00 00 00 00 00 00 00
1.222174 1  C1BC905x    Tx  d 8  00 00 00 00 00 00 00 00
1.242128 1  C1BC905x    Tx  d 8  00 00 00 00 00 00 00 00
1.262149 1  C1BC905x    Tx  d 8  00 00 00 00 00 00 00 00
1.282174 1  C1BC905x    Tx  d 8  00 00 00 00 00 00 00 00
1.302198 1  C1BC905x    Tx  d 8  00 00 00 00 00 00 00 00
1.322226 1  C1BC905x    Tx  d 8  00 00 00 00 00 00 00 00
1.342250 1  C1BC905x    Tx  d 8  00 00 00 00 00 00 00 00
1.362274 1  C1BC905x    Tx  d 8  00 00 00 00 00 00 00 00
1.382299 1  C1BC905x    Tx  d 8  00 00 00 00 00 00 00 00
1.402323 1  C1BC905x    Tx  d 8  00 00 00 00 00 00 00 00
1.422344 1  C1BC905x    Tx  d 8  00 00 00 00 00 00 00 00
1.442348 1  C1BC905x    Tx  d 8  00 00 00 00 00 00 00 00
1.462376 1  C1BC905x    Tx  d 8  00 00 00 00 00 00 00 00
1.482438 1  C1BC905x    Tx  d 8  00 00 00 00 00 00 00 00
1.502470 1  C1BC905x    Tx  d 8  00 00 00 00 00 00 00 00
1.522472 1  C1BC905x    Tx  d 8  00 00 00 00 00 00 00 00
1.542494 1  C1BC905x    Tx  d 8  00 00 00 00 00 00 00 00
1.562519 1  C1BC905x    Tx  d 8  00 00 00 00 00 00 00 00
1.582548 1  C1BC905x    Tx  d 8  00 00 00 00 00 00 00 00
1.602550 1  C1BC905x    Tx  d 8  00 00 00 00 00 00 00 00
1.622572 1  C1BC905x    Tx  d 8  00 00 00 00 00 00 00 00
1.642599 1  C1BC905x    Tx  d 8  00 00 00 00 00 00 00 00
1.662625 1  C1BC905x    Tx  d 8  00 00 00 00 00 00 00 00
1.682649 1  C1BC905x    Tx  d 8  00 00 00 00 00 00 00 00
1.702677 1  C1BC905x    Tx  d 8  00 00 00 00 00 00 00 00
1.722702 1  C1BC905x    Tx  d 8  00 00 00 00 00 00 00 00
1.742726 1  C1BC905x    Tx  d 8  00 00 00 00 00 00 00 00
1.762727 1  C1BC905x    Tx  d 8  00 00 00 00 00 00 00 00
1.782750 1  C1BC905x    Tx  d 8  00 00 00 00 00 00 00 00
1.802777 1  C1BC905x    Tx  d 8  00 00 00 00 00 00 00 00
1.822803 1  C1BC905x    Tx  d 8  00 00 00 00 00 00 00 00
1.842828 1  C1BC905x    Tx  d 8  00 00 00 00 00 00 00 00
1.862850 1  C1BC905x    Tx  d 8  00 00 00 00 00 00 00 00
1.882876 1  C1BC905x    Tx  d 8  00 00 00 00 00 00 00 00
1.902904 1  C1BC905x    Tx  d 8  00 00 00 00 00 00 00 00
1.922937 1  C1BC905x    Tx  d 8  00 00 00 00 00 00 00 00
1.942927 1  C1BC905x    Tx  d 8  00 00 00 00 00 00 00 00
1.962956 1  C1BC905x    Tx  d 8  00 00 00 00 00 00 00 00
1.982980 1  C1BC905x    Tx  d 8  00 00 00 00 00 00 00 00
2.003006 1  C1BC905x    Tx  d 8  00 00 00 00 00 00 00 00
2.023027 1  C1BC905x    Tx  d 8  00 00 00 00 00 00 00 00
2.043076 1  C1BC905x    Tx  d 8  00 00 00 00 00 00 00 00
2.063055 1  C1BC905x    Tx  d 8  00 00 00 00 00 00 00 00
2.083079 1  C1BC905x    Tx  d 8  00 00 00 00 00 00 00 00
2.103105 1  C1BC905x    Tx  d 8  00 00 00 00 00 00 00 00
2.123133 1  C1BC905x    Tx  d 8  00 00 00 00 00 00 00 00
2.143152 1  C1BC905x    Tx  d 8  00 00 00 00 00 00 00 00
2.163153 1  C1BC905x    Tx  d 8  00 00 00 00 00 00 00 00
2.183180 1  C1BC905x    Tx  d 8  00 00 00 00 00 00 00 00
2.203204 1  C1BC905x    Tx  d 8  00 00 00 00 00 00 00 00
2.223230 1  C1BC905x    Tx  d 8  00 00 00 00 00 00 00 00
2.243253 1  C1BC905x    Tx  d 8  00 00 00 00 00 00 00 00
2.263281 1  C1BC905x    Tx  d 8  00 00 00 00 00 00 00 00
2.283320 1  C1BC905x    Tx  d 8  00 00 00 00 00 00 00 00
2.303330 1  C1BC905x    Tx  d 8  00 00 00 00 00 00 00 00
2.323354 1  C1BC905x    Tx  d 8  00 00 00 00 00 00 00 00
2.343378 1  C1BC905x    Tx  d 8  00 00 00 00 00 00 00 00
2.363405 1  C1BC905x    Tx  d 8  00 00 00 00 00 00 00 00
2.383443 1  C1BC905x    Tx  d 8  00 00 00 00 00 00 00 00
2.403505 1  C1BC905x    Tx  d 8  00 00 00 00 00 00 00 00
2.423499 1  C1BC905x    Tx  d 8  00 00 00 00 00 00 00 00
268.401578 1  C1BC905x    Tx  d 8  00 00 00 00 00 00 00 00
268.401713 1  C1BC905x    Tx  d 8  00 00 00 00 00 00 00 00
268.401993 1  C1BC905x    Tx  d 8  00 00 00 00 00 00 00 00
268.402495 1  C1BC905x    Tx  d 8  00 00 00 00 00 00 00 00
268.402599 1  C1BC905x    Tx  d 8  00 00 00 00 00 00 00 00
268.402917 1  C1BC905x    Tx  d 8  00 00 00 00 00 00 00 00
268.403364 1  C1BC905x    Tx  d 8  00 00 00 00 00 00 00 00
268.403826 1  C1BC905x    Tx  d 8  00 00 00 00 00 00 00 00
268.404401 1  C1BC905x    Tx  d 8  00 00 00 00 00 00 00 00
268.404500 1  CF090C9x    Rx  d 8  00 00 00 00 00 FE 00 FE
268.404501 1  CF091C9x    Rx  d 8  00 00 00 FE 00 FE FF FF
268.404502 1  4           Rx  d 8  00 0C 00 00 00 00 00 00
268.404677 1  C1BC905x    Tx  d 8  00 00 00 00 00 00 00 00
268.404999 1  C1BC905x    Tx  d 8  00 00 00 00 00 00 00 00
268.405476 1  C1BC905x    Tx  d 8  00 00 00 00 00 00 00 00
268.405577 1  C1BC905x    Tx  d 8  00 00 00 00 00 00 00 00
268.405847 1  C1BC905x    Tx  d 8  00 00 00 00 00 00 00 00
268.406168 1  C1BC905x    Tx  d 8  00 00 00 00 00 00 00 00
268.406483 1  C1BC905x    Tx  d 8  00 00 00 00 00 00 00 00
268.406775 1  C1BC905x    Tx  d 8  00 00 00 00 00 00 00 00
268.407074 1  C1BC905x    Tx  d 8  00 00 00 00 00 00 00 00
268.407516 1  C1BC905x    Tx  d 8  00 00 00 00 00 00 00 00
268.407696 1  C1BC905x    Tx  d 8  00 00 00 00 00 00 00 00
268.407959 1  C1BC905x    Tx  d 8  00 00 00 00 00 00 00 00
268.408862 1  C1BC905x    Tx  d 8  00 00 00 00 00 00 00 00
268.415043 1  4           Rx  d 8  00 40 00 00 00 00 00 00
268.429192 1  C1BC905x    Tx  d 8  00 00 00 00 00 00 00 00
268.431616 1  CF090C9x    Rx  d 8  00 00 00 00 00 FE 00 FE
268.431619 1  CF091C9x    Rx  d 8  00 00 00 FE 00 FE FF FF
268.431620 1  CF092C9x    Rx  d 8  00 FE 00 FE FF FF FF FF
268.431622 1  CF092C9x    Rx  d 8  00 FE 00 FE FF FF FF FF
268.432669 1  CF094C9x    Rx  d 8  FF FF FF FF 00 00 00 FA
268.432670 1  CF094C9x    Rx  d 8  FF FF FF FF 00 00 00 FA
268.432672 1  CFF11C9x    Rx  d 8  00 00 00 00 00 00 00 00
268.432672 1  CFF11C9x    Rx  d 8  00 00 00 00 00 00 00 00
268.433813 1  CFF12C9x    Rx  d 8  FF FF FF FF FF FF FF FF
268.433814 1  CFF12C9x    Rx  d 8  FF FF FF FF FF FF FF FF
268.433815 1  CFF13C9x    Rx  d 8  00 FE FF FF FF FF FF FF
268.433815 1  CFF13C9x    Rx  d 8  00 FE FF FF FF FF FF FF
268.448629 1  CF090C9x    Rx  d 8  00 00 00 00 00 FE 00 FE
268.448631 1  CF091C9x    Rx  d 8  00 00 00 FE 00 FE FF FF
268.448632 1  CF092C9x    Rx  d 8  00 FE 00 FE FF FF FF FF
268.448633 1  CF094C9x    Rx  d 8  FF FF FF FF 00 00 00 FA
268.449220 1  C1BC905x    Tx  d 8  00 00 00 00 00 00 00 00
268.449615 1  CFF11C9x    Rx  d 8  00 00 00 00 00 00 00 00
268.449619 1  CFF12C9x    Rx  d 8  FF FF FF FF FF FF FF FF
268.449620 1  CFF13C9x    Rx  d 8  00 FE FF FF FF FF FF FF
268.469257 1  C1BC905x    Tx  d 8  00 00 00 00 00 00 00 00
268.470894 1  CF090C9x    Rx  d 8  00 00 00 00 00 FE 00 FE
268.470896 1  CF091C9x    Rx  d 8  00 00 00 FE 00 FE FF FF
268.470898 1  CF092C9x    Rx  d 8  00 FE 00 FE FF FF FF FF
268.470900 1  CF094C9x    Rx  d 8  FF FF FF FF 00 00 00 FA
268.472033 1  CFF11C9x    Rx  d 8  00 00 00 00 00 00 00 00
268.472034 1  CFF12C9x    Rx  d 8  FF FF FF FF FF FF FF FF
268.472035 1  CFF13C9x    Rx  d 8  00 FE FF FF FF FF FF FF
268.489310 1  C1BC905x    Tx  d 8  00 00 00 00 00 00 00 00
268.494514 1  CF090C9x    Rx  d 8  00 00 00 00 00 FE 00 FE
268.494515 1  CF091C9x    Rx  d 8  00 00 00 FE 00 FE FF FF
268.494519 1  CF092C9x    Rx  d 8  00 FE 00 FE FF FF FF FF
268.494521 1  CF093C9x    Rx  d 8  00 FF 00 FF FF FF FF FF
268.495464 1  CF094C9x    Rx  d 8  FF FF FF FF 00 00 00 FA
268.495467 1  CF095C9x    Rx  d 8  00 FE FF FF FF FF FF FF
268.495468 1  CF096C9x    Rx  d 8  0F FF FF FF FF 60 FF FF
268.495469 1  CF10AC9x    Rx  d 8  FE FF FE FF FF FF FF FF
268.496585 1  CF10BC9x    Rx  d 8  FE FF FE FF FF FF FF FF
268.496586 1  CF10CC9x    Rx  d 8  00 FF 00 FF FF FF 00 FF
268.496588 1  CFA24C9x    Rx  d 8  FF FF FF 00 FF FF FF FF
268.496589 1  CFF11C9x    Rx  d 8  00 00 00 00 00 00 00 00
268.497850 1  CFF12C9x    Rx  d 8  FF FF FF FF FF FF FF FF
268.497853 1  CFF13C9x    Rx  d 8  00 FE FF FF FF FF FF FF
268.509658 1  C1BC905x    Tx  d 8  00 00 00 00 00 00 00 00
268.517092 1  CF090C9x    Rx  d 8  00 00 00 00 00 FE 00 FE
268.517095 1  CF091C9x    Rx  d 8  00 00 00 FE 00 FE FF FF
268.517098 1  CF092C9x    Rx  d 8  00 FE 00 FE FF FF FF FF
268.517100 1  CF094C9x    Rx  d 8  FF FF FF FF 00 00 00 FA
268.518061 1  CFF11C9x    Rx  d 8  00 00 00 00 00 00 00 00
268.518063 1  CFF12C9x    Rx  d 8  FF FF FF FF FF FF FF FF
268.518064 1  CFF13C9x    Rx  d 8  00 FE FF FF FF FF FF FF
268.529772 1  C1BC905x    Tx  d 8  00 00 00 00 00 00 00 00
268.540405 1  CF090C9x    Rx  d 8  00 00 00 00 00 FE 00 FE
268.540406 1  CF091C9x    Rx  d 8  00 00 00 FE 00 FE FF FF
268.540407 1  CF092C9x    Rx  d 8  00 FE 00 FE FF FF FF FF
268.540408 1  CF094C9x    Rx  d 8  FF FF FF FF 00 00 00 FA
268.541503 1  CFF11C9x    Rx  d 8  00 00 00 00 00 00 00 00
268.541504 1  CFF12C9x    Rx  d 8  FF FF FF FF FF FF FF FF
268.541505 1  CFF13C9x    Rx  d 8  00 FE FF FF FF FF FF FF
268.549787 1  C1BC905x    Tx  d 8  00 00 00 00 00 00 00 00
268.562946 1  CF090C9x    Rx  d 8  00 00 00 00 00 FE 00 FE
268.562948 1  CF091C9x    Rx  d 8  00 00 00 FE 00 FE FF FF
268.562949 1  CF092C9x    Rx  d 8  00 FE 00 FE FF FF FF FF
268.562950 1  CF094C9x    Rx  d 8  FF FF FF FF 00 00 00 FA
268.563871 1  CFF11C9x    Rx  d 8  00 00 00 00 00 00 00 00
268.563873 1  CFF12C9x    Rx  d 8  FF FF FF FF FF FF FF FF
268.563874 1  CFF13C9x    Rx  d 8  00 FE FF FF FF FF FF FF
268.569920 1  C1BC905x    Tx  d 8  00 00 00 00 00 00 00 00
268.586287 1  CF090C9x    Rx  d 8  00 00 00 00 00 FE 00 FE
268.586292 1  CF091C9x    Rx  d 8  00 00 00 FE 00 FE FF FF
268.586293 1  CF092C9x    Rx  d 8  00 FE 00 FE FF FF FF FF
268.586294 1  CF094C9x    Rx  d 8  FF FF FF FF 00 00 00 FA
268.587212 1  CFF11C9x    Rx  d 8  00 00 00 00 00 00 00 00
268.587214 1  CFF12C9x    Rx  d 8  FF FF FF FF FF FF FF FF
268.587215 1  CFF13C9x    Rx  d 8  00 FE FF FF FF FF FF FF
268.590193 1  C1BC905x    Tx  d 8  00 00 00 00 00 00 00 00
268.595667 1  CF10CC9x    Rx  d 8  00 FF 00 FF FF FF 00 FF
268.595669 1  CF093C9x    Rx  d 8  00 FF 00 FF FF FF FF FF
268.595673 1  CF095C9x    Rx  d 8  00 FE FF FF FF FF FF FF
268.595674 1  CF096C9x    Rx  d 8  0F FF FF FF FF 60 FF FF
268.596586 1  CF10AC9x    Rx  d 8  FE FF FE FF FF FF FF FF
268.596587 1  CF10BC9x    Rx  d 8  FE FF FE FF FF FF FF FF
268.596588 1  CFA24C9x    Rx  d 8  FF FF FF 00 FF FF FF FF
268.608754 1  CF090C9x    Rx  d 8  00 00 00 00 00 FE 00 FE
268.608756 1  CF091C9x    Rx  d 8  00 00 00 FE 00 FE FF FF
268.608757 1  CF092C9x    Rx  d 8  00 FE 00 FE FF FF FF FF
268.608761 1  CF094C9x    Rx  d 8  FF FF FF FF 00 00 00 FA
268.609908 1  CFF11C9x    Rx  d 8  00 00 00 00 00 00 00 00
268.609910 1  CFF12C9x    Rx  d 8  FF FF FF FF FF FF FF FF
268.609910 1  CFF13C9x    Rx  d 8  00 FE FF FF FF FF FF FF
268.610204 1  C1BC905x    Tx  d 8  00 00 00 00 00 00 00 00
268.630239 1  C1BC905x    Tx  d 8  00 00 00 00 00 00 00 00
268.634392 1  CF090C9x    Rx  d 8  00 00 00 00 00 FE 00 FE
268.634393 1  CF091C9x    Rx  d 8  00 00 00 FE 00 FE FF FF
268.634394 1  CF092C9x    Rx  d 8  00 FE 00 FE FF FF FF FF
268.634395 1  CF094C9x    Rx  d 8  FF FF FF FF 00 00 00 FA
268.635403 1  CFF11C9x    Rx  d 8  00 00 00 00 00 00 00 00
268.635406 1  CFF12C9x    Rx  d 8  FF FF FF FF FF FF FF FF
268.635406 1  CFF13C9x    Rx  d 8  00 FE FF FF FF FF FF FF
268.650505 1  C1BC905x    Tx  d 8  00 00 00 00 00 00 00 00
268.656662 1  CF090C9x    Rx  d 8  00 00 00 00 00 FE 00 FE
268.656666 1  CF091C9x    Rx  d 8  00 00 00 FE 00 FE FF FF
268.656667 1  CF092C9x    Rx  d 8  00 FE 00 FE FF FF FF FF
268.656668 1  CF094C9x    Rx  d 8  FF FF FF FF 00 00 00 FA
268.657621 1  CFF11C9x    Rx  d 8  00 00 00 00 00 00 00 00
268.657623 1  CFF12C9x    Rx  d 8  FF FF FF FF FF FF FF FF
268.657624 1  CFF13C9x    Rx  d 8  00 FE FF FF FF FF FF FF
268.670783 1  C1BC905x    Tx  d 8  00 00 00 00 00 00 00 00
268.678754 1  CF090C9x    Rx  d 8  00 00 00 00 00 FE 00 FE
268.678756 1  CF091C9x    Rx  d 8  00 00 00 FE 00 FE FF FF
268.678759 1  CF092C9x    Rx  d 8  00 FE 00 FE FF FF FF FF
268.678761 1  CF094C9x    Rx  d 8  FF FF FF FF 00 00 00 FA
268.679884 1  CFF11C9x    Rx  d 8  00 00 00 00 00 00 00 00
268.679886 1  CFF12C9x    Rx  d 8  FF FF FF FF FF FF FF FF
268.679887 1  CFF13C9x    Rx  d 8  00 FE FF FF FF FF FF FF
268.690806 1  C1BC905x    Tx  d 8  00 00 00 00 00 00 00 00
268.697363 1  CF10CC9x    Rx  d 8  00 FF 00 FF FF FF 00 FF
268.697365 1  CF093C9x    Rx  d 8  00 FF 00 FF FF FF FF FF
268.697366 1  CF095C9x    Rx  d 8  00 FE FF FF FF FF FF FF
268.697367 1  CF096C9x    Rx  d 8  0F FF FF FF FF 60 FF FF
268.698289 1  CF10AC9x    Rx  d 8  FE FF FE FF FF FF FF FF
268.698291 1  CF10BC9x    Rx  d 8  FE FF FE FF FF FF FF FF
268.698294 1  CFA24C9x    Rx  d 8  FF FF FF 00 FF FF FF FF
268.702082 1  CF090C9x    Rx  d 8  00 00 00 00 00 FE 00 FE
268.702085 1  CF091C9x    Rx  d 8  00 00 00 FE 00 FE FF FF
268.702087 1  CF092C9x    Rx  d 8  00 FE 00 FE FF FF FF FF
268.702088 1  CF094C9x    Rx  d 8  FF FF FF FF 00 00 00 FA
268.703060 1  CFF11C9x    Rx  d 8  00 00 00 00 00 00 00 00
268.703061 1  CFF12C9x    Rx  d 8  FF FF FF FF FF FF FF FF
268.703062 1  CFF13C9x    Rx  d 8  00 FE FF FF FF FF FF FF
268.711126 1  C1BC905x    Tx  d 8  00 00 00 00 00 00 00 00
268.724484 1  CF090C9x    Rx  d 8  00 00 00 00 00 FE 00 FE
268.724486 1  CF091C9x    Rx  d 8  00 00 00 FE 00 FE FF FF
268.724487 1  CF092C9x    Rx  d 8  00 FE 00 FE FF FF FF FF
268.724488 1  CF094C9x    Rx  d 8  FF FF FF FF 00 00 00 FA
268.725473 1  CFF11C9x    Rx  d 8  00 00 00 00 00 00 00 00
268.725477 1  CFF12C9x    Rx  d 8  FF FF FF FF FF FF FF FF
268.725478 1  CFF13C9x    Rx  d 8  00 FE FF FF FF FF FF FF
268.731404 1  C1BC905x    Tx  d 8  00 00 00 00 00 00 00 00
268.746630 1  CF090C9x    Rx  d 8  00 00 00 00 00 FE 00 FE
268.746632 1  CF091C9x    Rx  d 8  00 00 00 FE 00 FE FF FF
268.746633 1  CF092C9x    Rx  d 8  00 FE 00 FE FF FF FF FF
268.746635 1  CF094C9x    Rx  d 8  FF FF FF FF 00 00 00 FA
268.747749 1  CFF11C9x    Rx  d 8  00 00 00 00 00 00 00 00
268.747751 1  CFF12C9x    Rx  d 8  FF FF FF FF FF FF FF FF
268.747751 1  CFF13C9x    Rx  d 8  00 FE FF FF FF FF FF FF
268.751406 1  C1BC905x    Tx  d 8  00 00 00 00 00 00 00 00
268.769093 1  CF090C9x    Rx  d 8  00 00 00 00 00 FE 00 FE
268.769097 1  CF091C9x    Rx  d 8  00 00 00 FE 00 FE FF FF
268.769098 1  CF092C9x    Rx  d 8  00 FE 00 FE FF FF FF FF
268.769099 1  CF094C9x    Rx  d 8  FF FF FF FF 00 00 00 FA
268.770039 1  CFF11C9x    Rx  d 8  00 00 00 00 00 00 00 00
268.770041 1  CFF12C9x    Rx  d 8  FF FF FF FF FF FF FF FF
268.770042 1  CFF13C9x    Rx  d 8  00 FE FF FF FF FF FF FF
268.771722 1  C1BC905x    Tx  d 8  00 00 00 00 00 00 00 00
268.791027 1  CF090C9x    Rx  d 8  00 00 00 00 00 FE 00 FE
268.791030 1  CF091C9x    Rx  d 8  00 00 00 FE 00 FE FF FF
268.791031 1  CF092C9x    Rx  d 8  00 FE 00 FE FF FF FF FF
268.791033 1  CF094C9x    Rx  d 8  FF FF FF FF 00 00 00 FA
268.791799 1  C1BC905x    Tx  d 8  00 00 00 00 00 00 00 00
268.791960 1  CFF11C9x    Rx  d 8  00 00 00 00 00 00 00 00
268.791962 1  CFF12C9x    Rx  d 8  FF FF FF FF FF FF FF FF
268.791963 1  CFF13C9x    Rx  d 8  00 FE FF FF FF FF FF FF
268.800714 1  CF10CC9x    Rx  d 8  00 FF 00 FF FF FF 00 FF
268.800716 1  CF093C9x    Rx  d 8  00 FF 00 FF FF FF FF FF
268.800717 1  CF095C9x    Rx  d 8  00 FE FF FF FF FF FF FF
268.800718 1  CF096C9x    Rx  d 8  0F FF FF FF FF 60 FF FF
268.801691 1  CF10AC9x    Rx  d 8  FE FF FE FF FF FF FF FF
268.801693 1  CF10BC9x    Rx  d 8  FE FF FE FF FF FF FF FF
268.801694 1  CFA24C9x    Rx  d 8  FF FF FF 00 FF FF FF FF
268.812088 1  C1BC905x    Tx  d 8  00 00 00 00 00 00 00 00
268.813932 1  CF090C9x    Rx  d 8  00 00 00 00 00 FE 00 FE
268.813933 1  CF091C9x    Rx  d 8  00 00 00 FE 00 FE FF FF
268.813937 1  CF092C9x    Rx  d 8  00 FE 00 FE FF FF FF FF
268.813938 1  CF094C9x    Rx  d 8  FF FF FF FF 00 00 00 FA
268.815058 1  CFF11C9x    Rx  d 8  00 00 00 00 00 00 00 00
268.815060 1  CFF12C9x    Rx  d 8  FF FF FF FF FF FF FF FF
268.815061 1  CFF13C9x    Rx  d 8  00 FE FF FF FF FF FF FF
268.832079 1  C1BC905x    Tx  d 8  00 00 00 00 00 00 00 00
268.836214 1  4           Rx  d 8  00 0C 00 00 00 00 00 00
268.837467 1  4           Rx  d 8  00 30 00 00 00 00 00 00
268.852387 1  C1BC905x    Tx  d 8  00 00 00 00 00 00 00 00
268.872448 1  C1BC905x    Tx  d 8  00 00 00 00 00 00 00 00
268.892703 1  C1BC905x    Tx  d 8  00 00 00 00 00 00 00 00
268.912821 1  C1BC905x    Tx  d 8  00 00 00 00 00 00 00 00
268.933131 1  C1BC905x    Tx  d 8  00 00 00 00 00 00 00 00
268.953357 1  C1BC905x    Tx  d 8  00 00 00 00 00 00 00 00
268.973645 1  C1BC905x    Tx  d 8  00 00 00 00 00 00 00 00
268.993767 1  C1BC905x    Tx  d 8  00 00 00 00 00 00 00 00
269.013821 1  C1BC905x    Tx  d 8  00 00 00 00 00 00 00 00
269.034131 1  C1BC905x    Tx  d 8  00 00 00 00 00 00 00 00
269.054240 1  C1BC905x    Tx  d 8  00 00 00 00 00 00 00 00
269.074499 1  C1BC905x    Tx  d 8  00 00 00 00 00 00 00 00
269.094535 1  C1BC905x    Tx  d 8  00 00 00 00 00 00 00 00
269.114648 1  C1BC905x    Tx  d 8  00 00 00 00 00 00 00 00
269.134969 1  C1BC905x    Tx  d 8  00 00 00 00 00 00 00 00
269.155048 1  C1BC905x    Tx  d 8  00 00 00 00 00 00 00 00
269.175332 1  C1BC905x    Tx  d 8  00 00 00 00 00 00 00 00
269.195335 1  C1BC905x    Tx  d 8  00 00 00 00 00 00 00 00
269.215629 1  C1BC905x    Tx  d 8  00 00 00 00 00 00 00 00
269.235903 1  C1BC905x    Tx  d 8  00 00 00 00 00 00 00 00
269.256201 1  C1BC905x    Tx  d 8  00 00 00 00 00 00 00 00
269.276453 1  C1BC905x    Tx  d 8  00 00 00 00 00 00 00 00
269.296669 1  C1BC905x    Tx  d 8  00 00 00 00 00 00 00 00
269.316727 1  C1BC905x    Tx  d 8  00 00 00 00 00 00 00 00
269.336778 1  C1BC905x    Tx  d 8  00 00 00 00 00 00 00 00
269.356881 1  C1BC905x    Tx  d 8  00 00 00 00 00 00 00 00
269.377126 1  C1BC905x    Tx  d 8  00 00 00 00 00 00 00 00
269.397265 1  C1BC905x    Tx  d 8  00 00 00 00 00 00 00 00
269.417583 1  C1BC905x    Tx  d 8  00 00 00 00 00 00 00 00
269.437835 1  C1BC905x    Tx  d 8  00 00 00 00 00 00 00 00
269.457907 1  C1BC905x    Tx  d 8  00 00 00 00 00 00 00 00
269.477934 1  C1BC905x    Tx  d 8  00 00 00 00 00 00 00 00
269.498226 1  C1BC905x    Tx  d 8  00 00 00 00 00 00 00 00
269.518485 1  C1BC905x    Tx  d 8  00 00 00 00 00 00 00 00
269.538742 1  C1BC905x    Tx  d 8  00 00 00 00 00 00 00 00
269.558858 1  C1BC905x    Tx  d 8  00 00 00 00 00 00 00 00
269.579136 1  C1BC905x    Tx  d 8  00 00 00 00 00 00 00 00
269.599411 1  C1BC905x    Tx  d 8  00 00 00 00 00 00 00 00
269.619637 1  C1BC905x    Tx  d 8  00 00 00 00 00 00 00 00
269.639881 1  C1BC905x    Tx  d 8  00 00 00 00 00 00 00 00
269.660028 1  C1BC905x    Tx  d 8  00 00 00 00 00 00 00 00
269.680258 1  C1BC905x    Tx  d 8  00 00 00 00 00 00 00 00
269.700544 1  C1BC905x    Tx  d 8  00 00 00 00 00 00 00 00
269.720812 1  C1BC905x    Tx  d 8  00 00 00 00 00 00 00 00
269.741091 1  C1BC905x    Tx  d 8  00 00 00 00 00 00 00 00
269.761230 1  C1BC905x    Tx  d 8  00 00 00 00 00 00 00 00
269.781588 1  C1BC905x    Tx  d 8  00 00 00 00 00 00 00 00
269.801693 1  C1BC905x    Tx  d 8  00 00 00 00 00 00 00 00
269.821809 1  C1BC905x    Tx  d 8  00 00 00 00 00 00 00 00
269.842083 1  C1BC905x    Tx  d 8  00 00 00 00 00 00 00 00
269.862195 1  C1BC905x    Tx  d 8  00 00 00 00 00 00 00 00
269.882462 1  C1BC905x    Tx  d 8  00 00 00 00 00 00 00 00
269.902770 1  C1BC905x    Tx  d 8  00 00 00 00 00 00 00 00
269.923031 1  C1BC905x    Tx  d 8  00 00 00 00 00 00 00 00
269.943264 1  C1BC905x    Tx  d 8  00 00 00 00 00 00 00 00
269.963563 1  C1BC905x    Tx  d 8  00 00 00 00 00 00 00 00
269.983845 1  C1BC905x    Tx  d 8  00 00 00 00 00 00 00 00
270.004115 1  C1BC905x    Tx  d 8  00 00 00 00 00 00 00 00
270.024377 1  C1BC905x    Tx  d 8  00 00 00 00 00 00 00 00
270.044639 1  C1BC905x    Tx  d 8  00 00 00 00 00 00 00 00
270.064938 1  C1BC905x    Tx  d 8  00 00 00 00 00 00 00 00
270.085172 1  C1BC905x    Tx  d 8  00 00 00 00 00 00 00 00
270.105478 1  C1BC905x    Tx  d 8  00 00 00 00 00 00 00 00
270.125702 1  C1BC905x    Tx  d 8  00 00 00 00 00 00 00 00
270.145986 1  C1BC905x    Tx  d 8  00 00 00 00 00 00 00 00
270.166073 1  C1BC905x    Tx  d 8  00 00 00 00 00 00 00 00
270.186327 1  C1BC905x    Tx  d 8  00 00 00 00 00 00 00 00
270.206588 1  C1BC905x    Tx  d 8  00 00 00 00 00 00 00 00
270.226676 1  C1BC905x    Tx  d 8  00 00 00 00 00 00 00 00
270.246978 1  C1BC905x    Tx  d 8  00 00 00 00 00 00 00 00
270.267213 1  C1BC905x    Tx  d 8  00 00 00 00 00 00 00 00
270.287524 1  C1BC905x    Tx  d 8  00 00 00 00 00 00 00 00
271.787621 1  C1BC905x    Tx  d 8  00 00 00 00 00 00 00 00
271.787729 1  C1BC905x    Tx  d 8  00 00 00 00 00 00 00 00
271.788077 1  C1BC905x    Tx  d 8  00 00 00 00 00 00 00 00
271.788379 1  C1BC905x    Tx  d 8  00 00 00 00 00 00 00 00
271.788679 1  C1BC905x    Tx  d 8  00 00 00 00 00 00 00 00
271.789005 1  C1BC905x    Tx  d 8  00 00 00 00 00 00 00 00
271.789326 1  C1BC905x    Tx  d 8  00 00 00 00 00 00 00 00
271.789629 1  C1BC905x    Tx  d 8  00 00 00 00 00 00 00 00
271.789971 1  C1BC905x    Tx  d 8  00 00 00 00 00 00 00 00
271.790254 1  C1BC905x    Tx  d 8  00 00 00 00 00 00 00 00
271.790554 1  C1BC905x    Tx  d 8  00 00 00 00 00 00 00 00
271.790880 1  C1BC905x    Tx  d 8  00 00 00 00 00 00 00 00
271.791180 1  C1BC905x    Tx  d 8  00 00 00 00 00 00 00 00
271.791505 1  C1BC905x    Tx  d 8  00 00 00 00 00 00 00 00
271.791829 1  C1BC905x    Tx  d 8  00 00 00 00 00 00 00 00
271.792124 1  C1BC905x    Tx  d 8  00 00 00 00 00 00 00 00
271.792429 1  C1BC905x    Tx  d 8  00 00 00 00 00 00 00 00
271.792757 1  C1BC905x    Tx  d 8  00 00 00 00 00 00 00 00
271.793052 1  C1BC905x    Tx  d 8  00 00 00 00 00 00 00 00
271.793378 1  C1BC905x    Tx  d 8  00 00 00 00 00 00 00 00
271.793678 1  C1BC905x    Tx  d 8  00 00 00 00 00 00 00 00
271.799195 1  4           Rx  d 8  00 0C 00 00 00 00 00 00
271.799198 1  CF090C9x    Rx  d 8  00 00 00 00 00 FE 00 FE
271.801375 1  C1BC905x    Tx  d 8  00 00 00 00 00 00 00 00
271.817353 1  CF091C9x    Rx  d 8  00 00 00 FE 00 FE FF FF
271.817356 1  CF092C9x    Rx  d 8  00 FE 00 FE FF FF FF FF
271.817357 1  CF094C9x    Rx  d 8  FF FF FF FF 00 00 00 00
271.817359 1  CFF11C9x    Rx  d 8  00 00 00 00 00 00 00 00
271.818460 1  CFF12C9x    Rx  d 8  FF FF FF FF FF FF FF FF
271.818461 1  CFF13C9x    Rx  d 8  00 FE FF FF FF FF FF FF
271.818462 1  CF090C9x    Rx  d 8  00 00 00 00 00 FE 00 FE
271.818463 1  CF091C9x    Rx  d 8  00 00 00 FE 00 FE FF FF
271.819634 1  CF092C9x    Rx  d 8  00 FE 00 FE FF FF FF FF
271.819635 1  CF094C9x    Rx  d 8  FF FF FF FF 00 00 00 00
271.819636 1  CFF11C9x    Rx  d 8  00 00 00 00 00 00 00 00
271.819637 1  CFF12C9x    Rx  d 8  FF FF FF FF FF FF FF FF
271.820767 1  CFF13C9x    Rx  d 8  00 FE FF FF FF FF FF FF
271.821454 1  C1BC905x    Tx  d 8  00 00 00 00 00 00 00 00
271.839015 1  CF090C9x    Rx  d 8  00 00 00 00 00 FE 00 FE
271.839017 1  CF091C9x    Rx  d 8  00 00 00 FE 00 FE FF FF
271.839018 1  CF092C9x    Rx  d 8  00 FE 00 FE FF FF FF FF
271.839019 1  CF094C9x    Rx  d 8  FF FF FF FF 00 00 00 00
271.840141 1  CFF11C9x    Rx  d 8  00 00 00 00 00 00 00 00
271.840142 1  CFF12C9x    Rx  d 8  FF FF FF FF FF FF FF FF
271.840144 1  CFF13C9x    Rx  d 8  00 FE FF FF FF FF FF FF
271.841450 1  C1BC905x    Tx  d 8  00 00 00 00 00 00 00 00
271.854030 1  CF10CC9x    Rx  d 8  00 FF 00 FF FF FF 00 FF
271.854032 1  CF093C9x    Rx  d 8  00 00 00 00 FF FF FF FF
271.854033 1  CF095C9x    Rx  d 8  00 FE FF FF FF FF FF FF
271.854034 1  CF096C9x    Rx  d 8  0F FF FF FF FF 00 FF FF
271.855155 1  CF10AC9x    Rx  d 8  FE FF FE FF FF FF FF FF
271.855156 1  CF10BC9x    Rx  d 8  FE FF FE FF FF FF FF FF
271.855157 1  CFA24C9x    Rx  d 8  FF FF FF 00 FF FF FF FF
271.859074 1  CF090C9x    Rx  d 8  00 00 00 00 00 FE 00 FE
271.859076 1  CF091C9x    Rx  d 8  00 00 00 FE 00 FE FF FF
271.859076 1  CF092C9x    Rx  d 8  00 FE 00 FE FF FF FF FF
271.859077 1  CF094C9x    Rx  d 8  FF FF FF FF 00 00 00 00
271.860209 1  4           Rx  d 8  00 40 00 00 00 00 00 00
271.860211 1  CFF11C9x    Rx  d 8  00 00 00 00 00 00 00 00
271.860212 1  CFF12C9x    Rx  d 8  FF FF FF FF FF FF FF FF
271.860213 1  CFF13C9x    Rx  d 8  00 FE FF FF FF FF FF FF
271.861498 1  C1BC905x    Tx  d 8  00 00 00 00 00 00 00 00
271.879306 1  CF090C9x    Rx  d 8  00 00 00 00 00 FE 00 FE
271.879308 1  CF091C9x    Rx  d 8  00 00 00 FE 00 FE FF FF
271.879309 1  CF092C9x    Rx  d 8  00 FE 00 FE FF FF FF FF
271.879309 1  CF094C9x    Rx  d 8  FF FF FF FF 00 00 00 00
271.880405 1  CFF11C9x    Rx  d 8  00 00 00 00 00 00 00 00
271.880406 1  CFF12C9x    Rx  d 8  FF FF FF FF FF FF FF FF
